date Wed Sep 16 03:57:08.718 pm 2026
base hex  timestamps absolute
internal events logged
// version 17.6.0
// Measurement UUID: f07b2f69-914b-458f-b07c-5a67a1973a22
Begin TriggerBlock Wed Sep 16 03:57:08.718 pm 2026
   0.000000 Start of measurement
   0.013693 CAN 1 Status:chip status error active
   1.012092 1   Statistic: D 0 R 0 XD 0 XR 0 E 0 O 0 B 0.00%
   1.012092 CAN 1 Status:chip status error active
   2.010491 1   Statistic: D 0 R 0 XD 0 XR 0 E 0 O 0 B 0.00%
   2.010491 CAN 1 Status:chip status error active
   3.008891 1   Statistic: D 0 R 0 XD 0 XR 0 E 0 O 0 B 0.00%
   3.008891 CAN 1 Status:chip status error active
   4.007290 1   Statistic: D 0 R 0 XD 0 XR 0 E 0 O 0 B 0.00%
   4.007290 CAN 1 Status:chip status error active
   5.005689 1   Statistic: D 0 R 0 XD 0 XR 0 E 0 O 0 B 0.00%
   5.005689 CAN 1 Status:chip status error active
   6.004088 1   Statistic: D 0 R 0 XD 0 XR 0 E 0 O 0 B 0.00%
   6.004088 CAN 1 Status:chip status error active
   7.002488 1   Statistic: D 0 R 0 XD 0 XR 0 E 0 O 0 B 0.00%
   7.002488 CAN 1 Status:chip status error active
   8.000887 1   Statistic: D 0 R 0 XD 0 XR 0 E 0 O 0 B 0.00%
   8.000887 CAN 1 Status:chip status error active
   9.024886 1   Statistic: D 0 R 0 XD 0 XR 0 E 0 O 0 B 0.00%
   9.024886 CAN 1 Status:chip status error active
  10.023285 1   Statistic: D 0 R 0 XD 0 XR 0 E 0 O 0 B 0.00%
  10.023285 CAN 1 Status:chip status error active
  11.021684 1   Statistic: D 0 R 0 XD 0 XR 0 E 0 O 0 B 0.00%
  11.021684 CAN 1 Status:chip status error active
  11.570228 1  7E0             Rx   d 8 02 10 03 BE 49 CA B5 BE  Length = 227891 BitCount = 118 ID = 2016
  11.571818 1  7E8             Rx   d 8 06 50 03 00 32 01 EA 00  Length = 233892 BitCount = 121 ID = 2024
  11.635205 1  7E0             Rx   d 8 02 27 01 BE 1C CA B5 BE  Length = 227891 BitCount = 118 ID = 2016
  11.637881 1  7E8             Rx   d 8 06 67 01 CC 3D D3 BD 00  Length = 223891 BitCount = 116 ID = 2024
  11.696227 1  7E0             Rx   d 8 06 27 02 86 DE A8 77 BE  Length = 225891 BitCount = 117 ID = 2016
  11.697973 1  7E8             Rx   d 8 02 67 02 00 00 00 00 00  Length = 237892 BitCount = 123 ID = 2024
  11.757212 1  7E0             Rx   d 8 03 22 F1 81 1C CA B5 BE  Length = 223892 BitCount = 116 ID = 2016
  11.759048 1  7E8             Rx   d 8 03 7F 22 31 00 00 00 00  Length = 235891 BitCount = 122 ID = 2024
  11.821205 1  7E0             Rx   d 8 03 22 F1 80 1C CA B5 BE  Length = 225892 BitCount = 117 ID = 2016
  11.823119 1  7E8             Rx   d 8 10 35 62 F1 80 50 56 45  Length = 227892 BitCount = 118 ID = 2024
  11.826224 1  7E0             Rx   d 8 30 00 00 00 00 00 00 00  Length = 243891 BitCount = 126 ID = 2016
  11.827120 1  7E8             Rx   d 8 21 52 5F 43 42 5F 49 46  Length = 225892 BitCount = 117 ID = 2024
  11.828126 1  7E8             Rx   d 8 22 58 33 50 5F 41 41 5F  Length = 231883 BitCount = 120 ID = 2024
  11.829120 1  7E8             Rx   d 8 23 41 34 32 5F 49 46 58  Length = 223891 BitCount = 116 ID = 2024
  11.830128 1  7E8             Rx   d 8 24 33 5F 34 30 5F 50 31  Length = 229891 BitCount = 119 ID = 2024
  11.831128 1  7E8             Rx   d 8 25 38 34 38 3B 37 20 20  Length = 229892 BitCount = 119 ID = 2024
  11.832132 1  7E8             Rx   d 8 26 20 20 20 20 20 20 20  Length = 233892 BitCount = 121 ID = 2024
  11.833140 1  7E8             Rx   d 8 27 20 20 20 20 20 00 00  Length = 237891 BitCount = 123 ID = 2024
  12.020084 1   Statistic: D 18 R 0 XD 0 XR 0 E 0 O 0 B 0.42%
  12.020084 CAN 1 Status:chip status error active
  13.018483 1   Statistic: D 0 R 0 XD 0 XR 0 E 0 O 0 B 0.00%
  13.018483 CAN 1 Status:chip status error active
  14.016882 1   Statistic: D 0 R 0 XD 0 XR 0 E 0 O 0 B 0.00%
  14.016882 CAN 1 Status:chip status error active
  15.015281 1   Statistic: D 0 R 0 XD 0 XR 0 E 0 O 0 B 0.00%
  15.015281 CAN 1 Status:chip status error active
  16.013680 1   Statistic: D 0 R 0 XD 0 XR 0 E 0 O 0 B 0.00%
  16.013680 CAN 1 Status:chip status error active
  17.012080 1   Statistic: D 0 R 0 XD 0 XR 0 E 0 O 0 B 0.00%
  17.012080 CAN 1 Status:chip status error active
  18.010479 1   Statistic: D 0 R 0 XD 0 XR 0 E 0 O 0 B 0.00%
  18.010479 CAN 1 Status:chip status error active
  19.008878 1   Statistic: D 0 R 0 XD 0 XR 0 E 0 O 0 B 0.00%
  19.008878 CAN 1 Status:chip status error active
  20.007277 1   Statistic: D 0 R 0 XD 0 XR 0 E 0 O 0 B 0.00%
  20.007277 CAN 1 Status:chip status error active
  21.005677 1   Statistic: D 0 R 0 XD 0 XR 0 E 0 O 0 B 0.00%
  21.005677 CAN 1 Status:chip status error active
  21.890272 1  7E0             Rx   d 8 03 22 F1 82 49 CA B5 BE  Length = 225892 BitCount = 117 ID = 2016
  21.892957 1  7E8             Rx   d 8 10 13 62 F1 82 30 33 31  Length = 225892 BitCount = 117 ID = 2024
  21.895279 1  7E0             Rx   d 8 30 00 00 00 00 00 00 00  Length = 243891 BitCount = 126 ID = 2016
  21.895961 1  7E8             Rx   d 8 21 35 43 42 48 30 30 35  Length = 225883 BitCount = 117 ID = 2024
  21.896977 1  7E8             Rx   d 8 22 38 30 4E 00 00 00 00  Length = 237892 BitCount = 123 ID = 2024
  22.004076 1   Statistic: D 5 R 0 XD 0 XR 0 E 0 O 0 B 0.12%
  22.004076 CAN 1 Status:chip status error active
  23.002475 1   Statistic: D 0 R 0 XD 0 XR 0 E 0 O 0 B 0.00%
  23.002475 CAN 1 Status:chip status error active
  24.000874 1   Statistic: D 0 R 0 XD 0 XR 0 E 0 O 0 B 0.00%
  24.000874 CAN 1 Status:chip status error active
  25.024873 1   Statistic: D 0 R 0 XD 0 XR 0 E 0 O 0 B 0.00%
  25.024873 CAN 1 Status:chip status error active
  26.023273 1   Statistic: D 0 R 0 XD 0 XR 0 E 0 O 0 B 0.00%
  26.023273 CAN 1 Status:chip status error active
  27.021672 1   Statistic: D 0 R 0 XD 0 XR 0 E 0 O 0 B 0.00%
  27.021672 CAN 1 Status:chip status error active
  27.216300 1  7DF             Rx   d 8 02 10 83 BE 1C CA B5 BE  Length = 229891 BitCount = 119 ID = 2015
  27.267287 1  7DF             Rx   d 8 02 85 82 BE 1C CA B5 BE  Length = 229892 BitCount = 119 ID = 2015
  28.020071 1   Statistic: D 2 R 0 XD 0 XR 0 E 0 O 0 B 0.04%
  28.020071 CAN 1 Status:chip status error active
  28.396310 1  7DF             Rx   d 8 03 28 83 01 1C CA B5 BE  Length = 227892 BitCount = 118 ID = 2015
  29.018470 1   Statistic: D 1 R 0 XD 0 XR 0 E 0 O 0 B 0.02%
  29.018470 CAN 1 Status:chip status error active
  29.467490 1  7DF             Rx   d 8 02 3E 80 00 00 00 00 00  Length = 239891 BitCount = 124 ID = 2015
  29.505337 1  7E0             Rx   d 8 02 27 05 01 1C CA B5 BE  Length = 227891 BitCount = 118 ID = 2016
  29.507677 1  7E8             Rx   d 8 10 0A 67 05 80 91 75 DA  Length = 225892 BitCount = 117 ID = 2024
  29.510398 1  7E0             Rx   d 8 30 00 00 00 00 00 00 00  Length = 243892 BitCount = 126 ID = 2016
  29.510688 1  7E8             Rx   d 8 21 8D F5 5E 12 00 00 00  Length = 231892 BitCount = 120 ID = 2024
  29.605477 1  7E0             Rx   d 8 10 0A 27 06 C0 73 3F 4A  Length = 229892 BitCount = 119 ID = 2016
  29.605712 1  7E8             Rx   d 3 30 00 00  Length = 145896 BitCount = 77 ID = 2024
  29.607372 1  7E0             Rx   d 8 21 21 43 00 FF 00 1C 1C  Length = 235891 BitCount = 122 ID = 2016
  29.608810 1  7E8             Rx   d 8 02 67 06 00 00 00 00 00  Length = 237891 BitCount = 123 ID = 2024
  29.705056 1  7E0             Rx   d 8 02 10 02 BE 1C CA B5 BE  Length = 229892 BitCount = 119 ID = 2016
  29.706910 1  7E8             Rx   d 8 06 50 02 00 32 01 EA 00  Length = 231891 BitCount = 120 ID = 2024
  29.809440 1  7E0             Rx   d 8 05 31 01 02 00 01 B5 BE  Length = 231892 BitCount = 120 ID = 2016
  29.812042 1  7E8             Rx   d 8 04 71 01 02 00 00 00 00  Length = 237892 BitCount = 123 ID = 2024
  30.016869 1   Statistic: D 13 R 0 XD 0 XR 0 E 0 O 0 B 0.30%
  30.016869 CAN 1 Status:chip status error active
  30.019355 1  7E0             Rx   d 8 10 1D 31 01 02 01 1C 1C  Length = 229891 BitCount = 119 ID = 2016
  30.020182 1  7E8             Rx   d 3 30 00 00  Length = 145896 BitCount = 77 ID = 2024
  30.020748 1  7E0             Rx   d 8 21 1C 1C 1C 1C 1C 1C 1C  Length = 233892 BitCount = 121 ID = 2016
  30.020988 1  7E0             Rx   d 8 22 1C 1C 1C 1C 1C 1C 1C  Length = 231892 BitCount = 120 ID = 2016
  30.021228 1  7E0             Rx   d 8 23 1C 1C 1C 1C 1C 1C 1C  Length = 231892 BitCount = 120 ID = 2016
  30.021476 1  7E0             Rx   d 8 24 1C 1C 00 00 00 00 00  Length = 239891 BitCount = 124 ID = 2016
  30.030287 1  7E8             Rx   d 8 04 71 01 02 01 00 00 00  Length = 237891 BitCount = 123 ID = 2024
  30.149483 1  7DF             Rx   d 8 02 3E 80 00 00 00 00 00  Length = 239892 BitCount = 124 ID = 2015
  30.228334 1  7E0             Rx   d 8 05 31 01 FF 00 04 B5 BE  Length = 229891 BitCount = 119 ID = 2016
  30.264565 1  7E8             Rx   d 8 03 7F 31 78 00 00 00 00  Length = 237892 BitCount = 123 ID = 2024
  31.015269 1   Statistic: D 10 R 0 XD 0 XR 0 E 0 O 0 B 0.23%
  31.015269 CAN 1 Status:chip status error active
  32.013668 1   Statistic: D 0 R 0 XD 0 XR 0 E 0 O 0 B 0.00%
  32.013668 CAN 1 Status:chip status error active
  33.012067 1   Statistic: D 0 R 0 XD 0 XR 0 E 0 O 0 B 0.00%
  33.012067 CAN 1 Status:chip status error active
  33.149614 1  7DF             Rx   d 8 02 3E 80 00 00 00 00 00  Length = 239892 BitCount = 124 ID = 2015
  34.010466 1   Statistic: D 1 R 0 XD 0 XR 0 E 0 O 0 B 0.02%
  34.010466 CAN 1 Status:chip status error active
  35.008866 1   Statistic: D 0 R 0 XD 0 XR 0 E 0 O 0 B 0.00%
  35.008866 CAN 1 Status:chip status error active
  35.110601 1  7E8             Rx   d 8 04 71 01 FF 00 00 00 00  Length = 235891 BitCount = 122 ID = 2024
  35.201437 1  7E0             Rx   d 8 10 0B 34 00 44 80 07 00  Length = 233891 BitCount = 121 ID = 2016
  35.201619 1  7E8             Rx   d 3 30 00 00  Length = 145895 BitCount = 77 ID = 2024
  35.202833 1  7E0             Rx   d 8 21 00 00 3C 00 00 1C 1C  Length = 239892 BitCount = 124 ID = 2016
  35.205715 1  7E8             Rx   d 8 04 74 20 0F FF 00 00 00  Length = 233891 BitCount = 121 ID = 2024
  35.800422 1  7E0             Rx   d 8 1F FF 36 01 EF BE AD DE  Length = 229883 BitCount = 119 ID = 2016
  35.801245 1  7E8             Rx   d 3 30 00 00  Length = 145895 BitCount = 77 ID = 2024
  35.802599 1  7E0             Rx   d 8 21 00 00 00 00 00 00 00  Length = 243891 BitCount = 126 ID = 2016
  35.802851 1  7E0             Rx   d 8 22 00 00 00 00 00 00 00  Length = 243891 BitCount = 126 ID = 2016
  35.803103 1  7E0             Rx   d 8 23 00 00 00 00 00 00 00  Length = 243891 BitCount = 126 ID = 2016
  35.803353 1  7E0             Rx   d 8 24 00 00 00 00 00 00 00  Length = 241892 BitCount = 125 ID = 2016
  35.803604 1  7E0             Rx   d 8 25 00 00 00 00 00 00 00  Length = 241892 BitCount = 125 ID = 2016
  35.803856 1  7E0             Rx   d 8 26 00 00 00 00 00 00 00  Length = 243891 BitCount = 126 ID = 2016
  35.804108 1  7E0             Rx   d 8 27 00 00 00 00 00 00 00  Length = 243892 BitCount = 126 ID = 2016
  35.804358 1  7E0             Rx   d 8 28 00 00 00 00 00 00 00  Length = 241892 BitCount = 125 ID = 2016
  35.804608 1  7E0             Rx   d 8 29 00 00 00 00 00 00 00  Length = 241904 BitCount = 125 ID = 2016
  35.804859 1  7E0             Rx   d 8 2A 00 00 00 00 00 00 00  Length = 241892 BitCount = 125 ID = 2016
  35.805109 1  7E0             Rx   d 8 2B 00 00 00 00 00 00 00  Length = 241879 BitCount = 125 ID = 2016
  35.805359 1  7E0             Rx   d 8 2C 00 00 00 00 00 00 00  Length = 241891 BitCount = 125 ID = 2016
  35.805613 1  7E0             Rx   d 8 2D 00 00 00 00 00 00 00  Length = 245892 BitCount = 127 ID = 2016
  35.805863 1  7E0             Rx   d 8 2E 00 00 00 00 00 00 00  Length = 241891 BitCount = 125 ID = 2016
  35.806114 1  7E0             Rx   d 8 2F 00 00 00 00 00 00 00  Length = 241891 BitCount = 125 ID = 2016
  35.806366 1  7E0             Rx   d 8 20 00 00 00 00 00 00 00  Length = 243892 BitCount = 126 ID = 2016
  35.806618 1  7E0             Rx   d 8 21 00 00 00 00 00 00 00  Length = 243891 BitCount = 126 ID = 2016
  35.806870 1  7E0             Rx   d 8 22 00 00 00 00 00 00 00  Length = 243879 BitCount = 126 ID = 2016
  35.807122 1  7E0             Rx   d 8 23 00 00 00 00 00 00 00  Length = 243892 BitCount = 126 ID = 2016
  35.807373 1  7E0             Rx   d 8 24 00 00 00 00 00 00 00  Length = 241891 BitCount = 125 ID = 2016
  35.807623 1  7E0             Rx   d 8 25 00 00 00 00 00 00 00  Length = 241892 BitCount = 125 ID = 2016
  35.807875 1  7E0             Rx   d 8 26 00 00 00 00 00 00 00  Length = 243892 BitCount = 126 ID = 2016
  35.808127 1  7E0             Rx   d 8 27 00 00 00 00 00 00 00  Length = 243891 BitCount = 126 ID = 2016
  35.808378 1  7E0             Rx   d 8 28 00 00 00 00 00 00 00  Length = 241892 BitCount = 125 ID = 2016
  35.808628 1  7E0             Rx   d 8 29 00 00 00 00 00 00 00  Length = 241879 BitCount = 125 ID = 2016
  35.808878 1  7E0             Rx   d 8 2A 00 00 00 00 00 00 00  Length = 241891 BitCount = 125 ID = 2016
  35.809128 1  7E0             Rx   d 8 2B 00 00 00 00 00 00 00  Length = 241892 BitCount = 125 ID = 2016
  35.809378 1  7E0             Rx   d 8 2C 00 00 00 00 00 00 00  Length = 241891 BitCount = 125 ID = 2016
  35.809633 1  7E0             Rx   d 8 2D 00 00 00 00 00 00 00  Length = 245904 BitCount = 127 ID = 2016
  35.809883 1  7E0             Rx   d 8 2E 00 00 00 00 00 00 00  Length = 241891 BitCount = 125 ID = 2016
  35.810133 1  7E0             Rx   d 8 2F 00 00 00 00 00 00 00  Length = 241879 BitCount = 125 ID = 2016
  35.810385 1  7E0             Rx   d 8 20 00 00 00 00 00 00 00  Length = 243892 BitCount = 126 ID = 2016
  35.810637 1  7E0             Rx   d 8 21 00 00 00 00 00 00 00  Length = 243891 BitCount = 126 ID = 2016
  35.810890 1  7E0             Rx   d 8 22 00 00 00 00 00 00 00  Length = 243891 BitCount = 126 ID = 2016
  35.811142 1  7E0             Rx   d 8 23 00 00 00 00 00 00 00  Length = 243892 BitCount = 126 ID = 2016
  35.811392 1  7E0             Rx   d 8 24 00 00 00 00 00 00 00  Length = 241892 BitCount = 125 ID = 2016
  35.811632 1  7E0             Rx   d 8 25 60 00 00 02 A0 0C 38  Length = 231891 BitCount = 120 ID = 2016
  35.811874 1  7E0             Rx   d 8 26 80 00 00 43 80 40 60  Length = 233891 BitCount = 121 ID = 2016
  35.812115 1  7E0             Rx   d 8 27 0C 80 01 01 03 07 FA  Length = 231892 BitCount = 120 ID = 2016
  35.812357 1  7E0             Rx   d 8 28 FA FA FA FA FA FA FA  Length = 233891 BitCount = 121 ID = 2016
  35.812603 1  7E0             Rx   d 8 29 FA FA FA FA 00 00 00  Length = 237891 BitCount = 123 ID = 2016
  35.812853 1  7E0             Rx   d 8 2A 00 00 00 00 00 00 00  Length = 241891 BitCount = 125 ID = 2016
  35.813103 1  7E0             Rx   d 8 2B 00 00 00 00 00 00 00  Length = 241891 BitCount = 125 ID = 2016
  35.813354 1  7E0             Rx   d 8 2C 00 00 00 00 00 00 00  Length = 241891 BitCount = 125 ID = 2016
  35.813608 1  7E0             Rx   d 8 2D 00 00 00 00 00 00 00  Length = 245879 BitCount = 127 ID = 2016
  35.813844 1  7E0             Rx   d 8 2E 00 A8 0C 38 80 31 30  Length = 227892 BitCount = 118 ID = 2016
  35.814074 1  7E0             Rx   d 8 2F 53 57 31 33 36 39 33  Length = 221891 BitCount = 115 ID = 2016
  35.814325 1  7E0             Rx   d 8 20 36 00 00 00 01 07 80  Length = 241892 BitCount = 125 ID = 2016
  35.814563 1  7E0             Rx   d 8 21 B7 11 38 80 09 00 00  Length = 229892 BitCount = 119 ID = 2016
  35.814801 1  7E0             Rx   d 8 22 02 B8 11 38 80 C0 CC  Length = 229891 BitCount = 119 ID = 2016
  35.815041 1  7E0             Rx   d 8 23 0B 80 2F F0 0B 80 00  Length = 231891 BitCount = 120 ID = 2016
  35.815289 1  7E0             Rx   d 8 24 00 00 02 B0 5F 08 80  Length = 239883 BitCount = 124 ID = 2016
  35.815526 1  7E0             Rx   d 8 25 30 F0 0B 80 33 14 0C  Length = 227891 BitCount = 118 ID = 2016
  35.815770 1  7E0             Rx   d 8 26 80 00 00 00 02 B4 5F  Length = 235892 BitCount = 122 ID = 2016
  35.816008 1  7E0             Rx   d 8 27 08 80 34 14 0C 80 CB  Length = 229891 BitCount = 119 ID = 2016
  35.816254 1  7E0             Rx   d 8 28 39 0C 80 00 00 00 02  Length = 237891 BitCount = 123 ID = 2016
  35.816490 1  7E0             Rx   d 8 29 B8 5F 08 80 CC 39 0C  Length = 227892 BitCount = 118 ID = 2016
  35.816737 1  7E0             Rx   d 8 2A 80 9B 5F 0C 80 00 00  Length = 237892 BitCount = 123 ID = 2016
  35.816975 1  7E0             Rx   d 8 2B 00 02 BC 5F 08 80 9C  Length = 229883 BitCount = 119 ID = 2016
  35.817219 1  7E0             Rx   d 8 2C 5F 0C 80 BB 5F 0C 80  Length = 235892 BitCount = 122 ID = 2016
  35.817465 1  7E0             Rx   d 8 2D 00 00 00 02 C0 5F 08  Length = 237891 BitCount = 123 ID = 2016
  35.817703 1  7E0             Rx   d 8 2E 80 68 60 0C 80 EF B3  Length = 229892 BitCount = 119 ID = 2016
  35.817946 1  7E0             Rx   d 8 2F 0E 80 04 00 00 02 80  Length = 233892 BitCount = 121 ID = 2016
  35.818184 1  7E0             Rx   d 8 20 03 07 80 46 D6 87 11  Length = 229891 BitCount = 119 ID = 2016
  35.818424 1  7E0             Rx   d 8 21 B9 29 78 EE 00 00 00  Length = 231891 BitCount = 120 ID = 2016
  35.818676 1  7E0             Rx   d 8 22 00 00 00 00 00 00 00  Length = 243879 BitCount = 126 ID = 2016
  35.818928 1  7E0             Rx   d 8 23 00 00 00 00 00 00 00  Length = 243891 BitCount = 126 ID = 2016
  35.819179 1  7E0             Rx   d 8 24 00 00 00 00 00 00 00  Length = 241891 BitCount = 125 ID = 2016
  35.819429 1  7E0             Rx   d 8 25 00 00 00 00 00 00 00  Length = 241891 BitCount = 125 ID = 2016
  35.819681 1  7E0             Rx   d 8 26 00 00 00 00 00 00 00  Length = 243891 BitCount = 126 ID = 2016
  35.819933 1  7E0             Rx   d 8 27 00 00 00 00 00 00 00  Length = 243892 BitCount = 126 ID = 2016
  35.820184 1  7E0             Rx   d 8 28 00 00 00 00 00 00 00  Length = 241892 BitCount = 125 ID = 2016
  35.820428 1  7E0             Rx   d 8 29 00 00 00 00 A0 0A 82  Length = 235891 BitCount = 122 ID = 2016
  35.820666 1  7E0             Rx   d 8 2A 00 CD 80 E3 0F 91 00  Length = 229892 BitCount = 119 ID = 2016
  35.820904 1  7E0             Rx   d 8 2B 00 27 D9 22 A8 A5 A0  Length = 229892 BitCount = 119 ID = 2016
  35.821142 1  7E0             Rx   d 8 2C 0F D2 02 89 22 48 01  Length = 229904 BitCount = 119 ID = 2016
  35.821381 1  7E0             Rx   d 8 2D FC FE 91 40 88 FF D9  Length = 229892 BitCount = 119 ID = 2016
  35.821619 1  7E0             Rx   d 8 2E FF D4 8F 4C F0 EF 8F  Length = 229892 BitCount = 119 ID = 2016
  35.821859 1  7E0             Rx   d 8 2F 42 80 91 30 00 FF D9  Length = 231883 BitCount = 120 ID = 2016
  35.822097 1  7E0             Rx   d 8 20 FF 00 06 19 FF 0C 90  Length = 229891 BitCount = 119 ID = 2016
  35.822333 1  7E0             Rx   d 8 21 91 30 88 2F 8F FF CF  Length = 227892 BitCount = 118 ID = 2016
  35.822568 1  7E0             Rx   d 8 22 F1 96 F1 D9 22 08 0D  Length = 225891 BitCount = 117 ID = 2016
  35.822802 1  7E0             Rx   d 8 23 59 FF 0C 90 19 FF 0C  Length = 225891 BitCount = 117 ID = 2016
  35.823038 1  7E0             Rx   d 8 24 90 19 FF 0C 90 8F FF  Length = 227892 BitCount = 118 ID = 2016
  35.823270 1  7E0             Rx   d 8 25 CF F1 96 F2 59 FF 0C  Length = 223892 BitCount = 116 ID = 2016
  35.823506 1  7E0             Rx   d 8 26 90 19 FF 0C 90 82 1F  Length = 227883 BitCount = 118 ID = 2016
  35.823741 1  7E0             Rx   d 8 27 6C 20 91 30 88 2F D9  Length = 225892 BitCount = 117 ID = 2016
  35.823979 1  7E0             Rx   d 8 28 22 00 0D 6C 20 91 30  Length = 229891 BitCount = 119 ID = 2016
  35.825233 1  7E0             Rx   d 8 29 88 2F D9 22 04 0D 6C  Length = 227883 BitCount = 118 ID = 2016
  35.825471 1  7E0             Rx   d 8 2A 20 19 FF 0C 90 8F FF  Length = 229892 BitCount = 119 ID = 2016
  35.825703 1  7E0             Rx   d 8 2B CF F1 96 F1 59 FF 0C  Length = 223891 BitCount = 116 ID = 2016
  35.825944 1  7E0             Rx   d 8 2C 90 19 FF 0C 90 19 FF  Length = 231891 BitCount = 120 ID = 2016
  35.826180 1  7E0             Rx   d 8 2D 0C 90 8F FF CF F1 96  Length = 227891 BitCount = 118 ID = 2016
  35.826416 1  7E0             Rx   d 8 2E F3 59 FF 0C 90 19 FF  Length = 227892 BitCount = 118 ID = 2016
  35.826650 1  7E0             Rx   d 8 2F 0C 90 91 30 88 FF D9  Length = 225892 BitCount = 117 ID = 2016
  35.826895 1  7E0             Rx   d 8 20 FF 00 0D 00 00 4C F0  Length = 235883 BitCount = 122 ID = 2016
  35.827135 1  7E0             Rx   d 8 21 6F 2F FE 7F 7B F0 00  Length = 231892 BitCount = 120 ID = 2016
  35.827375 1  7E0             Rx   d 8 22 F8 1B 0F 00 F2 91 40  Length = 231891 BitCount = 120 ID = 2016
  35.827615 1  7E0             Rx   d 8 23 88 FF D9 FF C8 8F 68  Length = 231892 BitCount = 120 ID = 2016
  35.827855 1  7E0             Rx   d 8 24 0F 91 40 88 FF D9 FF  Length = 231892 BitCount = 120 ID = 2016
  35.828086 1  7E0             Rx   d 8 25 D4 8F 4C F0 B7 0F 01  Length = 221891 BitCount = 115 ID = 2016
  35.828324 1  7E0             Rx   d 8 26 FC 68 0F 91 60 88 FF  Length = 229891 BitCount = 119 ID = 2016
  35.828560 1  7E0             Rx   d 8 27 D9 FF D4 8F 4C F0 EF  Length = 227883 BitCount = 118 ID = 2016
  35.828796 1  7E0             Rx   d 8 28 8F 42 80 91 30 00 FF  Length = 227891 BitCount = 118 ID = 2016
  35.829034 1  7E0             Rx   d 8 29 D9 FF 00 06 19 FF 0C  Length = 229892 BitCount = 119 ID = 2016
  35.829271 1  7E0             Rx   d 8 2A 90 91 50 88 2F 8F FF  Length = 227891 BitCount = 118 ID = 2016
  35.829503 1  7E0             Rx   d 8 2B CF F1 96 F1 D9 22 08  Length = 223891 BitCount = 116 ID = 2016
  35.829739 1  7E0             Rx   d 8 2C 0D 59 FF 0C 90 19 FF  Length = 227891 BitCount = 118 ID = 2016
  35.829973 1  7E0             Rx   d 8 2D 0C 90 19 FF 0C 90 8F  Length = 225891 BitCount = 117 ID = 2016
  35.830211 1  7E0             Rx   d 8 2E FF CF F1 96 F2 59 FF  Length = 229892 BitCount = 119 ID = 2016
  35.830446 1  7E0             Rx   d 8 2F 0C 90 19 FF 0C 90 82  Length = 225891 BitCount = 117 ID = 2016
  35.830684 1  7E0             Rx   d 8 20 1F 6C 20 91 50 88 2F  Length = 229892 BitCount = 119 ID = 2016
  35.830918 1  7E0             Rx   d 8 21 D9 22 00 0D 6C 20 91  Length = 225892 BitCount = 117 ID = 2016
  35.831154 1  7E0             Rx   d 8 22 50 88 2F D9 22 04 0D  Length = 227892 BitCount = 118 ID = 2016
  35.831392 1  7E0             Rx   d 8 23 6C 20 19 FF 0C 90 8F  Length = 229891 BitCount = 119 ID = 2016
  35.831631 1  7E0             Rx   d 8 24 FF CF F1 96 F1 59 FF  Length = 229891 BitCount = 119 ID = 2016
  35.831865 1  7E0             Rx   d 8 25 0C 90 19 FF 0C 90 19  Length = 225883 BitCount = 117 ID = 2016
  35.832103 1  7E0             Rx   d 8 26 FF 0C 90 8F FF CF F1  Length = 229891 BitCount = 119 ID = 2016
  35.832335 1  7E0             Rx   d 8 27 96 F3 59 FF 0C 90 19  Length = 223892 BitCount = 116 ID = 2016
  35.832572 1  7E0             Rx   d 8 28 FF 0C 90 91 50 88 FF  Length = 227891 BitCount = 118 ID = 2016
  35.832814 1  7E0             Rx   d 8 29 D9 FF 00 0D 00 00 4C  Length = 233891 BitCount = 121 ID = 2016
  35.833052 1  7E0             Rx   d 8 2A F0 6F 2F FE 7F 7B F0  Length = 229892 BitCount = 119 ID = 2016
  35.833288 1  7E0             Rx   d 8 2B 00 F8 1B CF 06 F2 91  Length = 227892 BitCount = 118 ID = 2016
  35.833528 1  7E0             Rx   d 8 2C 60 88 FF D9 FF C8 8F  Length = 231883 BitCount = 120 ID = 2016
  35.833769 1  7E0             Rx   d 8 2D 68 0F 91 60 88 FF D9  Length = 231892 BitCount = 120 ID = 2016
  35.834003 1  7E0             Rx   d 8 2E FF D4 8F 4C F0 B7 0F  Length = 225891 BitCount = 117 ID = 2016
  35.834241 1  7E0             Rx   d 8 2F 01 FC 68 0F 1D 04 AF  Length = 229892 BitCount = 119 ID = 2016
  35.834479 1  7E0             Rx   d 8 20 0E 00 00 A9 3D 8F 7D  Length = 229892 BitCount = 119 ID = 2016
  35.834721 1  7E0             Rx   d 8 21 00 00 00 00 20 08 4D  Length = 233891 BitCount = 121 ID = 2016
  35.834958 1  7E0             Rx   d 8 22 C0 E1 FF 7B 80 03 28  Length = 227891 BitCount = 118 ID = 2016
  35.835186 1  7E0             Rx   d 8 23 1B 42 B5 2E 13 4F 21  Length = 219883 BitCount = 114 ID = 2016
  35.835420 1  7E0             Rx   d 8 24 32 60 32 CC 20 4D C0  Length = 225891 BitCount = 117 ID = 2016
  35.835660 1  7E0             Rx   d 8 25 E2 9F 0D 00 40 03 BB  Length = 231892 BitCount = 120 ID = 2016
  35.835900 1  7E0             Rx   d 8 26 A0 03 F8 CD CF E2 0F  Length = 231891 BitCount = 120 ID = 2016
  35.836137 1  7E0             Rx   d 8 27 0D 00 C0 04 48 AA 4C  Length = 227891 BitCount = 118 ID = 2016
  35.836373 1  7E0             Rx   d 8 28 F9 6E 15 02 9F 16 FF  Length = 227892 BitCount = 118 ID = 2016
  35.836603 1  7E0             Rx   d 8 29 EE 1D C8 93 82 68 D4  Length = 221892 BitCount = 115 ID = 2016
  35.836837 1  7E0             Rx   d 8 2A 33 39 3F 16 00 EE 18  Length = 225892 BitCount = 117 ID = 2016
  35.837069 1  7E0             Rx   d 8 2B C8 93 4C 33 68 AF C8  Length = 223892 BitCount = 116 ID = 2016
  35.837300 1  7E0             Rx   d 8 2C 93 4C 38 6E 06 C8 93  Length = 221891 BitCount = 115 ID = 2016
  35.837534 1  7E0             Rx   d 8 2D 99 33 20 00 4C 33 68  Length = 225904 BitCount = 117 ID = 2016
  35.837766 1  7E0             Rx   d 8 2E AF 4C F7 48 A2 7F F2  Length = 223892 BitCount = 116 ID = 2016
  35.838010 1  7E0             Rx   d 8 2F 06 80 99 22 0C 00 2D  Length = 235891 BitCount = 122 ID = 2016
  35.838257 1  7E0             Rx   d 8 20 02 00 00 68 AA 82 08  Length = 237891 BitCount = 123 ID = 2016
  35.838497 1  7E0             Rx   d 8 21 3C 0A 82 28 82 0F 02  Length = 231891 BitCount = 120 ID = 2016
  35.838731 1  7E0             Rx   d 8 22 84 3B 90 03 50 D2 06  Length = 225891 BitCount = 117 ID = 2016
  35.838973 1  7E0             Rx   d 8 23 78 00 6D 00 7D 06 CD  Length = 233892 BitCount = 121 ID = 2016
  35.839215 1  7E0             Rx   d 8 24 C9 E2 0F 0D 00 C0 04  Length = 233892 BitCount = 121 ID = 2016
  35.839454 1  7E0             Rx   d 8 25 02 82 00 90 91 80 03  Length = 229891 BitCount = 119 ID = 2016
  35.839690 1  7E0             Rx   d 8 26 F8 99 FF 94 DE 6D 00  Length = 227892 BitCount = 118 ID = 2016
  35.839930 1  7E0             Rx   d 8 27 EB 1A 02 2F 82 02 C8  Length = 231892 BitCount = 120 ID = 2016
  35.840160 1  7E0             Rx   d 8 28 BC 48 A8 48 9C 39 FB  Length = 221892 BitCount = 115 ID = 2016
  35.840398 1  7E0             Rx   d 8 29 01 10 E9 F2 01 10 19  Length = 229892 BitCount = 119 ID = 2016
  35.840635 1  7E0             Rx   d 8 2A C2 04 00 54 C3 52 22  Length = 227891 BitCount = 118 ID = 2016
  35.840869 1  7E0             Rx   d 8 2B 42 23 39 FA 00 10 91  Length = 225891 BitCount = 117 ID = 2016
  35.841107 1  7E0             Rx   d 8 2C 00 00 D7 74 C3 19 C3  Length = 229892 BitCount = 119 ID = 2016
  35.841345 1  7E0             Rx   d 8 2D 0C 00 7B 00 00 97 42  Length = 229891 BitCount = 119 ID = 2016
  35.841581 1  7E0             Rx   d 8 2E 32 7B 80 03 E8 D9 DD  Length = 227891 BitCount = 118 ID = 2016
  35.841820 1  7E0             Rx   d 8 2F C0 87 59 C2 0C 00 6C  Length = 229891 BitCount = 119 ID = 2016
  35.842052 1  7E0             Rx   d 8 20 C1 1B 89 8A 97 1B 4E  Length = 223891 BitCount = 116 ID = 2016
  35.842286 1  7E0             Rx   d 8 21 5B EE 40 DE 60 94 6D  Length = 225892 BitCount = 117 ID = 2016
  35.842530 1  7E0             Rx   d 8 22 00 05 09 DF 02 FD FF  Length = 235892 BitCount = 122 ID = 2016
  35.842766 1  7E0             Rx   d 8 23 91 00 00 37 D9 32 90  Length = 227891 BitCount = 118 ID = 2016
  35.843001 1  7E0             Rx   d 8 24 27 19 22 1C 00 0F 02  Length = 225892 BitCount = 117 ID = 2016
  35.843235 1  7E0             Rx   d 8 25 B0 21 53 82 3D 20 1B  Length = 225892 BitCount = 117 ID = 2016
  35.844593 1  7E0             Rx   d 8 26 82 4D 20 42 E2 68 92  Length = 223891 BitCount = 116 ID = 2016
  35.844831 1  7E0             Rx   d 8 27 C8 92 19 22 20 00 DF  Length = 229891 BitCount = 119 ID = 2016
  35.845066 1  7E0             Rx   d 8 28 02 2E 00 C8 92 99 22  Length = 225891 BitCount = 117 ID = 2016
  35.845310 1  7E0             Rx   d 8 29 20 00 19 22 08 00 01  Length = 235892 BitCount = 122 ID = 2016
  35.845540 1  7E0             Rx   d 8 2A D2 02 26 D4 22 54 22  Length = 221891 BitCount = 115 ID = 2016
  35.845768 1  7E0             Rx   d 8 2B 68 92 C8 92 C8 93 C8  Length = 219883 BitCount = 114 ID = 2016
  35.846000 1  7E0             Rx   d 8 2C 94 99 22 20 00 99 33  Length = 223892 BitCount = 116 ID = 2016
  35.846241 1  7E0             Rx   d 8 2D 20 00 99 44 20 00 19  Length = 231891 BitCount = 120 ID = 2016
  35.846483 1  7E0             Rx   d 8 2E 24 08 00 19 32 08 00  Length = 233891 BitCount = 121 ID = 2016
  35.846717 1  7E0             Rx   d 8 2F 01 D2 02 36 19 42 04  Length = 225892 BitCount = 117 ID = 2016
  35.846951 1  7E0             Rx   d 8 20 00 54 33 C8 93 99 33  Length = 225892 BitCount = 117 ID = 2016
  35.847189 1  7E0             Rx   d 8 21 20 00 5F 23 04 80 54  Length = 229891 BitCount = 119 ID = 2016
  35.847426 1  7E0             Rx   d 8 22 32 3C 07 19 32 08 00  Length = 227891 BitCount = 118 ID = 2016
  35.847658 1  7E0             Rx   d 8 23 01 D2 02 36 54 32 C2  Length = 223883 BitCount = 116 ID = 2016
  35.847890 1  7E0             Rx   d 8 24 42 01 E4 02 26 74 22  Length = 223891 BitCount = 116 ID = 2016
  35.848132 1  7E0             Rx   d 8 25 82 02 91 00 00 37 D9  Length = 233891 BitCount = 121 ID = 2016
  35.848366 1  7E0             Rx   d 8 26 32 90 27 59 22 18 00  Length = 225891 BitCount = 117 ID = 2016
  35.848601 1  7E0             Rx   d 8 27 0D 00 80 04 C8 92 D4  Length = 225892 BitCount = 117 ID = 2016
  35.848833 1  7E0             Rx   d 8 28 22 E9 22 16 00 C8 92  Length = 223891 BitCount = 116 ID = 2016
  35.849067 1  7E0             Rx   d 8 29 19 23 10 00 68 A3 C8  Length = 225891 BitCount = 117 ID = 2016
  35.849299 1  7E0             Rx   d 8 2A 92 39 23 25 00 91 80  Length = 223892 BitCount = 116 ID = 2016
  35.849532 1  7E0             Rx   d 8 2B 03 28 D9 22 8C DE 01  Length = 223891 BitCount = 116 ID = 2016
  35.849766 1  7E0             Rx   d 8 2C 23 01 26 39 23 01 00  Length = 225891 BitCount = 117 ID = 2016
  35.850002 1  7E0             Rx   d 8 2D C8 92 E9 F3 00 10 C8  Length = 227892 BitCount = 118 ID = 2016
  35.850236 1  7E0             Rx   d 8 2E 94 D4 22 D9 23 04 00  Length = 225892 BitCount = 117 ID = 2016
  35.850470 1  7E0             Rx   d 8 2F E8 B3 6C 22 59 22 04  Length = 225891 BitCount = 117 ID = 2016
  35.850707 1  7E0             Rx   d 8 20 00 6D 00 51 1D BB 00  Length = 227891 BitCount = 118 ID = 2016
  35.850947 1  7E0             Rx   d 8 21 00 F8 CD CF E2 0F 0D  Length = 231883 BitCount = 120 ID = 2016
  35.851183 1  7E0             Rx   d 8 22 00 C0 04 C8 92 99 22  Length = 227891 BitCount = 118 ID = 2016
  35.851431 1  7E0             Rx   d 8 23 04 00 2D 02 00 00 0D  Length = 239891 BitCount = 124 ID = 2016
  35.851673 1  7E0             Rx   d 8 24 00 40 03 BB A0 03 F8  Length = 233891 BitCount = 121 ID = 2016
  35.851914 1  7E0             Rx   d 8 25 CD CF E2 0F 0D 00 C0  Length = 231892 BitCount = 120 ID = 2016
  35.852146 1  7E0             Rx   d 8 26 04 6D 00 45 1A C8 B2  Length = 223891 BitCount = 116 ID = 2016
  35.852384 1  7E0             Rx   d 8 27 02 2F 19 23 04 00 54  Length = 229883 BitCount = 119 ID = 2016
  35.852624 1  7E0             Rx   d 8 28 22 19 24 0C 00 52 33  Length = 231892 BitCount = 120 ID = 2016
  35.852854 1  7E0             Rx   d 8 29 42 32 42 43 6C 21 74  Length = 221891 BitCount = 115 ID = 2016
  35.853089 1  7E0             Rx   d 8 2A 22 59 23 0C 00 19 23  Length = 225892 BitCount = 117 ID = 2016
  35.853327 1  7E0             Rx   d 8 2B 08 00 7F 23 04 80 59  Length = 229891 BitCount = 119 ID = 2016
  35.853565 1  7E0             Rx   d 8 2C 22 08 00 C8 94 6D 00  Length = 229892 BitCount = 119 ID = 2016
  35.853799 1  7E0             Rx   d 8 2D 2B 1D 60 94 6D 00 6C  Length = 225891 BitCount = 117 ID = 2016
  35.854039 1  7E0             Rx   d 8 2E 08 DF 02 FD FF C8 92  Length = 231891 BitCount = 120 ID = 2016
  35.854272 1  7E0             Rx   d 8 2F D4 22 39 22 15 00 C2  Length = 223891 BitCount = 116 ID = 2016
  35.854506 1  7E0             Rx   d 8 20 F2 E9 22 15 00 C8 92  Length = 225891 BitCount = 117 ID = 2016
  35.854738 1  7E0             Rx   d 8 21 D4 22 39 22 15 00 F6  Length = 223892 BitCount = 116 ID = 2016
  35.854974 1  7E0             Rx   d 8 22 2E 91 00 00 37 D9 32  Length = 227892 BitCount = 118 ID = 2016
  35.855209 1  7E0             Rx   d 8 23 90 27 19 22 1C 00 C8  Length = 225891 BitCount = 117 ID = 2016
  35.855445 1  7E0             Rx   d 8 24 93 19 33 08 00 0F 32  Length = 227892 BitCount = 118 ID = 2016
  35.855681 1  7E0             Rx   d 8 25 E0 20 59 22 1C 00 19  Length = 227892 BitCount = 118 ID = 2016
  35.855917 1  7E0             Rx   d 8 26 F2 10 10 DF 02 63 00  Length = 227892 BitCount = 118 ID = 2016
  35.856153 1  7E0             Rx   d 8 27 99 F2 10 10 82 12 D4  Length = 227892 BitCount = 118 ID = 2016
  35.856392 1  7E0             Rx   d 8 28 22 E9 22 14 00 99 F2  Length = 229891 BitCount = 119 ID = 2016
  35.856630 1  7E0             Rx   d 8 29 10 10 54 2D 6D 00 01  Length = 229883 BitCount = 119 ID = 2016
  35.856864 1  7E0             Rx   d 8 2A 1A 60 D2 74 22 99 F2  Length = 225891 BitCount = 117 ID = 2016
  35.857094 1  7E0             Rx   d 8 2B 10 10 D4 22 39 22 15  Length = 221892 BitCount = 115 ID = 2016
  35.857328 1  7E0             Rx   d 8 2C 00 C2 12 E9 22 15 00  Length = 225891 BitCount = 117 ID = 2016
  35.857567 1  7E0             Rx   d 8 2D 99 F2 10 10 19 22 20  Length = 229891 BitCount = 119 ID = 2016
  35.857807 1  7E0             Rx   d 8 2E 00 DF 02 38 00 99 F2  Length = 231892 BitCount = 120 ID = 2016
  35.858043 1  7E0             Rx   d 8 2F 10 10 99 22 20 00 19  Length = 227892 BitCount = 118 ID = 2016
  35.858283 1  7E0             Rx   d 8 20 22 08 00 01 D2 02 26  Length = 231892 BitCount = 120 ID = 2016
  35.858517 1  7E0             Rx   d 8 21 19 F2 10 10 99 22 04  Length = 225891 BitCount = 117 ID = 2016
  35.858756 1  7E0             Rx   d 8 22 00 74 22 99 F2 10 10  Length = 229892 BitCount = 119 ID = 2016
  35.858994 1  7E0             Rx   d 8 23 99 F3 10 10 99 F4 10  Length = 229892 BitCount = 119 ID = 2016
  35.859228 1  7E0             Rx   d 8 24 10 99 22 20 00 99 33  Length = 225892 BitCount = 117 ID = 2016
  35.859468 1  7E0             Rx   d 8 25 20 00 99 44 20 00 19  Length = 231892 BitCount = 120 ID = 2016
  35.859711 1  7E0             Rx   d 8 26 24 08 00 19 32 08 00  Length = 233891 BitCount = 121 ID = 2016
  35.859947 1  7E0             Rx   d 8 27 C2 14 01 D2 02 36 19  Length = 227891 BitCount = 118 ID = 2016
  35.860187 1  7E0             Rx   d 8 28 42 04 00 19 33 04 00  Length = 231892 BitCount = 120 ID = 2016
  35.860421 1  7E0             Rx   d 8 29 99 F3 10 10 99 33 20  Length = 225891 BitCount = 117 ID = 2016
  35.860661 1  7E0             Rx   d 8 2A 00 5F 23 04 80 54 32  Length = 231891 BitCount = 120 ID = 2016
  35.860902 1  7E0             Rx   d 8 2B 3C 08 19 32 08 00 01  Length = 231892 BitCount = 120 ID = 2016
  35.861140 1  7E0             Rx   d 8 2C D2 02 36 19 32 04 00  Length = 229891 BitCount = 119 ID = 2016
  35.861372 1  7E0             Rx   d 8 2D C2 42 01 E4 02 26 74  Length = 223883 BitCount = 116 ID = 2016
  35.861608 1  7E0             Rx   d 8 2E 22 91 00 00 37 D9 32  Length = 227892 BitCount = 118 ID = 2016
  35.861846 1  7E0             Rx   d 8 2F 90 27 19 23 1C 00 99  Length = 229891 BitCount = 119 ID = 2016
  35.862091 1  7E0             Rx   d 8 20 F3 10 10 19 32 08 00  Length = 235892 BitCount = 122 ID = 2016
  35.862327 1  7E0             Rx   d 8 21 A6 32 59 22 1C 00 82  Length = 227892 BitCount = 118 ID = 2016
  35.862567 1  7E0             Rx   d 8 22 02 59 F2 10 10 82 02  Length = 231891 BitCount = 120 ID = 2016
  35.862803 1  7E0             Rx   d 8 23 91 00 00 37 D9 32 90  Length = 227892 BitCount = 118 ID = 2016
  35.863041 1  7E0             Rx   d 8 24 27 59 22 18 00 0D 00  Length = 229892 BitCount = 119 ID = 2016
  35.863282 1  7E0             Rx   d 8 25 80 04 19 22 1C 00 3F  Length = 231883 BitCount = 120 ID = 2016
  35.863514 1  7E0             Rx   d 8 26 28 D9 FE 68 A8 E9 FB  Length = 223891 BitCount = 116 ID = 2016
  35.865378 1  7E0             Rx   d 8 27 01 10 68 9C E9 FA 00  Length = 227892 BitCount = 118 ID = 2016
  35.865616 1  7E0             Rx   d 8 28 10 E8 BC 6C C1 00 90  Length = 229892 BitCount = 119 ID = 2016
  35.865857 1  7E0             Rx   d 8 29 91 80 03 F8 D9 FF 94  Length = 231892 BitCount = 120 ID = 2016
  35.866089 1  7E0             Rx   d 8 2A DE C8 5F 6D 00 8E 19  Length = 223891 BitCount = 116 ID = 2016
  35.866327 1  7E0             Rx   d 8 2B 02 2F 82 02 C8 BC 48  Length = 229892 BitCount = 119 ID = 2016
  35.866563 1  7E0             Rx   d 8 2C A8 48 9C 39 FB 01 10  Length = 227883 BitCount = 118 ID = 2016
  35.866799 1  7E0             Rx   d 8 2D E9 F2 01 10 19 C2 04  Length = 227891 BitCount = 118 ID = 2016
  35.867036 1  7E0             Rx   d 8 2E 00 54 C3 52 22 42 23  Length = 227892 BitCount = 118 ID = 2016
  35.867278 1  7E0             Rx   d 8 2F 39 FA 00 10 91 00 00  Length = 233891 BitCount = 121 ID = 2016
  35.867512 1  7E0             Rx   d 8 20 D7 74 C3 19 C3 0C 00  Length = 225891 BitCount = 117 ID = 2016
  35.867744 1  7E0             Rx   d 8 21 7B 20 00 96 42 32 7B  Length = 223892 BitCount = 116 ID = 2016
  35.867982 1  7E0             Rx   d 8 22 80 03 E8 D9 DD C0 87  Length = 229891 BitCount = 119 ID = 2016
  35.868221 1  7E0             Rx   d 8 23 59 C2 0C 00 6C C1 1B  Length = 229883 BitCount = 119 ID = 2016
  35.868451 1  7E0             Rx   d 8 24 C9 EB 95 1B 4E 38 EE  Length = 221892 BitCount = 115 ID = 2016
  35.868685 1  7E0             Rx   d 8 25 40 DE 60 94 6D 00 A8  Length = 225891 BitCount = 117 ID = 2016
  35.868931 1  7E0             Rx   d 8 26 07 DF 02 FD FF 91 20  Length = 237892 BitCount = 123 ID = 2016
  35.869165 1  7E0             Rx   d 8 27 00 36 D9 32 E4 A5 19  Length = 225892 BitCount = 117 ID = 2016
  35.869404 1  7E0             Rx   d 8 28 22 1C 00 0F 02 B0 21  Length = 229891 BitCount = 119 ID = 2016
  35.869640 1  7E0             Rx   d 8 29 53 82 3D 20 1B 82 4D  Length = 227892 BitCount = 118 ID = 2016
  35.869870 1  7E0             Rx   d 8 2A 20 42 E2 68 92 C8 92  Length = 221883 BitCount = 115 ID = 2016
  35.870106 1  7E0             Rx   d 8 2B 19 22 20 00 DF 02 2E  Length = 227891 BitCount = 118 ID = 2016
  35.870344 1  7E0             Rx   d 8 2C 00 C8 92 99 22 20 00  Length = 229892 BitCount = 119 ID = 2016
  35.870583 1  7E0             Rx   d 8 2D 19 22 08 00 01 D2 02  Length = 229891 BitCount = 119 ID = 2016
  35.870811 1  7E0             Rx   d 8 2E 26 D4 22 54 22 68 92  Length = 219891 BitCount = 114 ID = 2016
  35.871041 1  7E0             Rx   d 8 2F C8 92 C8 93 C8 94 99  Length = 221892 BitCount = 115 ID = 2016
  35.871279 1  7E0             Rx   d 8 20 22 20 00 99 33 20 00  Length = 229891 BitCount = 119 ID = 2016
  35.871518 1  7E0             Rx   d 8 21 99 44 20 00 19 24 08  Length = 229892 BitCount = 119 ID = 2016
  35.871758 1  7E0             Rx   d 8 22 00 19 32 08 00 01 D2  Length = 231892 BitCount = 120 ID = 2016
  35.871994 1  7E0             Rx   d 8 23 02 36 19 42 04 00 54  Length = 227891 BitCount = 118 ID = 2016
  35.872228 1  7E0             Rx   d 8 24 33 C8 93 99 33 20 00  Length = 225904 BitCount = 117 ID = 2016
  35.872462 1  7E0             Rx   d 8 25 5F 23 04 80 54 32 3C  Length = 225883 BitCount = 117 ID = 2016
  35.872703 1  7E0             Rx   d 8 26 07 19 32 08 00 01 D2  Length = 231891 BitCount = 120 ID = 2016
  35.872937 1  7E0             Rx   d 8 27 02 36 54 32 C2 42 01  Length = 225892 BitCount = 117 ID = 2016
  35.873171 1  7E0             Rx   d 8 28 E4 02 26 74 22 82 02  Length = 225891 BitCount = 117 ID = 2016
  35.873407 1  7E0             Rx   d 8 29 91 20 00 36 D9 32 E4  Length = 227892 BitCount = 118 ID = 2016
  35.873645 1  7E0             Rx   d 8 2A A5 59 22 18 00 0D 00  Length = 229891 BitCount = 119 ID = 2016
  35.873880 1  7E0             Rx   d 8 2B 80 04 C8 92 D4 22 E9  Length = 225883 BitCount = 117 ID = 2016
  35.874110 1  7E0             Rx   d 8 2C 22 16 00 C8 92 19 23  Length = 221892 BitCount = 115 ID = 2016
  35.874342 1  7E0             Rx   d 8 2D 10 00 68 A3 C8 92 39  Length = 223891 BitCount = 116 ID = 2016
  35.874576 1  7E0             Rx   d 8 2E 23 25 00 91 80 03 28  Length = 225892 BitCount = 117 ID = 2016
  35.874810 1  7E0             Rx   d 8 2F D9 22 8C DE 01 23 01  Length = 225892 BitCount = 117 ID = 2016
  35.875045 1  7E0             Rx   d 8 20 26 39 23 01 00 C8 92  Length = 225891 BitCount = 117 ID = 2016
  35.875279 1  7E0             Rx   d 8 21 E9 F3 00 10 C8 94 D4  Length = 225892 BitCount = 117 ID = 2016
  35.875513 1  7E0             Rx   d 8 22 22 D9 23 04 00 E8 B3  Length = 225883 BitCount = 117 ID = 2016
  35.875749 1  7E0             Rx   d 8 23 6C 22 59 22 04 00 6D  Length = 227891 BitCount = 118 ID = 2016
  35.875996 1  7E0             Rx   d 8 24 00 F4 1B BB 00 00 F8  Length = 237892 BitCount = 123 ID = 2016
  35.876236 1  7E0             Rx   d 8 25 CD CF E2 0F 0D 00 C0  Length = 231891 BitCount = 120 ID = 2016
  35.876476 1  7E0             Rx   d 8 26 04 C8 92 99 22 04 00  Length = 231891 BitCount = 120 ID = 2016
  35.876718 1  7E0             Rx   d 8 27 2D 02 00 00 0D 00 40  Length = 233892 BitCount = 121 ID = 2016
  35.876956 1  7E0             Rx   d 8 28 03 BB A0 03 F8 CD CF  Length = 229891 BitCount = 119 ID = 2016
  35.877197 1  7E0             Rx   d 8 29 E2 0F 0D 00 C0 04 6D  Length = 231883 BitCount = 120 ID = 2016
  35.877433 1  7E0             Rx   d 8 2A 00 E8 18 C8 B2 02 2F  Length = 227892 BitCount = 118 ID = 2016
  35.877669 1  7E0             Rx   d 8 2B 19 23 04 00 54 22 19  Length = 227891 BitCount = 118 ID = 2016
  35.877905 1  7E0             Rx   d 8 2C 24 0C 00 52 33 42 32  Length = 227892 BitCount = 118 ID = 2016
  35.878135 1  7E0             Rx   d 8 2D 42 43 6C 21 74 22 59  Length = 221892 BitCount = 115 ID = 2016
  35.878372 1  7E0             Rx   d 8 2E 23 0C 00 19 23 08 00  Length = 227891 BitCount = 118 ID = 2016
  35.878610 1  7E0             Rx   d 8 2F 7F 23 04 80 59 22 08  Length = 229892 BitCount = 119 ID = 2016
  35.878846 1  7E0             Rx   d 8 20 00 C8 94 6D 00 CE 1B  Length = 227883 BitCount = 118 ID = 2016
  35.879086 1  7E0             Rx   d 8 21 60 94 6D 00 0F 07 DF  Length = 231891 BitCount = 120 ID = 2016
  35.879324 1  7E0             Rx   d 8 22 02 FD FF C8 92 D4 22  Length = 229892 BitCount = 119 ID = 2016
  35.879555 1  7E0             Rx   d 8 23 39 22 15 00 C2 F2 E9  Length = 221891 BitCount = 115 ID = 2016
  35.879787 1  7E0             Rx   d 8 24 22 15 00 C8 92 D4 22  Length = 223891 BitCount = 116 ID = 2016
  35.880019 1  7E0             Rx   d 8 25 39 22 15 00 F6 2E 91  Length = 223892 BitCount = 116 ID = 2016
  35.880253 1  7E0             Rx   d 8 26 20 00 36 D9 32 E4 A5  Length = 225891 BitCount = 117 ID = 2016
  35.880485 1  7E0             Rx   d 8 27 19 22 1C 00 C8 93 19  Length = 223892 BitCount = 116 ID = 2016
  35.880728 1  7E0             Rx   d 8 28 33 08 00 0F 32 E0 20  Length = 233892 BitCount = 121 ID = 2016
  35.880964 1  7E0             Rx   d 8 29 59 22 1C 00 19 F2 10  Length = 227891 BitCount = 118 ID = 2016
  35.881202 1  7E0             Rx   d 8 2A 10 DF 02 63 00 99 F2  Length = 229892 BitCount = 119 ID = 2016
  35.881434 1  7E0             Rx   d 8 2B 10 10 82 12 D4 22 E9  Length = 223892 BitCount = 116 ID = 2016
  35.881671 1  7E0             Rx   d 8 2C 22 14 00 99 F2 10 10  Length = 227891 BitCount = 118 ID = 2016
  35.881907 1  7E0             Rx   d 8 2D 54 2D 6D 00 A4 18 60  Length = 227892 BitCount = 118 ID = 2016
  35.882139 1  7E0             Rx   d 8 2E D2 74 22 99 F2 10 10  Length = 223891 BitCount = 116 ID = 2016
  35.882371 1  7E0             Rx   d 8 2F D4 22 39 22 15 00 C2  Length = 223891 BitCount = 116 ID = 2016
  35.882607 1  7E0             Rx   d 8 20 12 E9 22 15 00 99 F2  Length = 227892 BitCount = 118 ID = 2016
  35.882846 1  7E0             Rx   d 8 21 10 10 19 22 20 00 DF  Length = 229891 BitCount = 119 ID = 2016
  35.883084 1  7E0             Rx   d 8 22 02 38 00 99 F2 10 10  Length = 229883 BitCount = 119 ID = 2016
  35.883320 1  7E0             Rx   d 8 23 99 22 20 00 19 22 08  Length = 227892 BitCount = 118 ID = 2016
  35.883558 1  7E0             Rx   d 8 24 00 01 D2 02 26 19 F2  Length = 229891 BitCount = 119 ID = 2016
  35.883796 1  7E0             Rx   d 8 25 10 10 99 22 04 00 74  Length = 229892 BitCount = 119 ID = 2016
  35.885807 1  7E0             Rx   d 8 26 22 99 F2 10 10 99 F3  Length = 227891 BitCount = 118 ID = 2016
  35.886045 1  7E0             Rx   d 8 27 10 10 99 F4 10 10 99  Length = 229892 BitCount = 119 ID = 2016
  35.886283 1  7E0             Rx   d 8 28 22 20 00 99 33 20 00  Length = 229904 BitCount = 119 ID = 2016
  35.886521 1  7E0             Rx   d 8 29 99 44 20 00 19 24 08  Length = 229891 BitCount = 119 ID = 2016
  35.886759 1  7E0             Rx   d 8 2A 00 19 32 08 00 C2 14  Length = 229892 BitCount = 119 ID = 2016
  35.886994 1  7E0             Rx   d 8 2B 01 D2 02 36 19 42 04  Length = 225891 BitCount = 117 ID = 2016
  35.887236 1  7E0             Rx   d 8 2C 00 19 33 04 00 99 F3  Length = 233892 BitCount = 121 ID = 2016
  35.887472 1  7E0             Rx   d 8 2D 10 10 99 33 20 00 5F  Length = 227892 BitCount = 118 ID = 2016
  35.887706 1  7E0             Rx   d 8 2E 23 04 80 54 32 3C 08  Length = 225892 BitCount = 117 ID = 2016
  35.887947 1  7E0             Rx   d 8 2F 19 32 08 00 01 D2 02  Length = 231892 BitCount = 120 ID = 2016
  35.888185 1  7E0             Rx   d 8 20 36 19 32 04 00 C2 42  Length = 229891 BitCount = 119 ID = 2016
  35.888417 1  7E0             Rx   d 8 21 01 E4 02 26 74 22 91  Length = 223892 BitCount = 116 ID = 2016
  35.888657 1  7E0             Rx   d 8 22 20 00 36 D9 32 E4 A5  Length = 231891 BitCount = 120 ID = 2016
  35.888895 1  7E0             Rx   d 8 23 19 23 1C 00 99 F3 10  Length = 229891 BitCount = 119 ID = 2016
  35.889136 1  7E0             Rx   d 8 24 10 19 32 08 00 A6 32  Length = 231891 BitCount = 120 ID = 2016
  35.889374 1  7E0             Rx   d 8 25 59 22 1C 00 82 02 59  Length = 229892 BitCount = 119 ID = 2016
  35.889612 1  7E0             Rx   d 8 26 F2 10 10 82 02 91 20  Length = 229891 BitCount = 119 ID = 2016
  35.889844 1  7E0             Rx   d 8 27 00 36 D9 32 E4 A5 59  Length = 223891 BitCount = 116 ID = 2016
  35.890088 1  7E0             Rx   d 8 28 22 18 00 0D 00 80 04  Length = 235892 BitCount = 122 ID = 2016
  35.890327 1  7E0             Rx   d 8 29 19 22 1C 00 3F 28 D9  Length = 229891 BitCount = 119 ID = 2016
  35.890563 1  7E0             Rx   d 8 2A FE 68 A8 E9 FB 01 10  Length = 227892 BitCount = 118 ID = 2016
  35.890799 1  7E0             Rx   d 8 2B 68 9C E9 FA 00 10 E8  Length = 227892 BitCount = 118 ID = 2016
  35.891033 1  7E0             Rx   d 8 2C BC 6C C1 00 90 91 80  Length = 225891 BitCount = 117 ID = 2016
  35.891269 1  7E0             Rx   d 8 2D 03 F8 D9 FF 94 DE C8  Length = 227892 BitCount = 118 ID = 2016
  35.891508 1  7E0             Rx   d 8 2E AF 6D 00 31 18 02 2F  Length = 229892 BitCount = 119 ID = 2016
  35.891744 1  7E0             Rx   d 8 2F 82 02 C8 BC 48 A8 48  Length = 227891 BitCount = 118 ID = 2016
  35.891980 1  7E0             Rx   d 8 20 9C 39 FB 01 10 E9 F2  Length = 227892 BitCount = 118 ID = 2016
  35.892220 1  7E0             Rx   d 8 21 01 10 19 C2 04 00 54  Length = 231891 BitCount = 120 ID = 2016
  35.892450 1  7E0             Rx   d 8 22 C3 52 22 42 23 39 FA  Length = 221891 BitCount = 115 ID = 2016
  35.892689 1  7E0             Rx   d 8 23 00 10 91 00 00 D7 74  Length = 229892 BitCount = 119 ID = 2016
  35.892925 1  7E0             Rx   d 8 24 C3 19 C3 0C 00 7B 00  Length = 227892 BitCount = 118 ID = 2016
  35.893163 1  7E0             Rx   d 8 25 00 95 42 32 7B 80 03  Length = 229883 BitCount = 119 ID = 2016
  35.893393 1  7E0             Rx   d 8 26 E8 D9 DD C0 87 59 C2  Length = 221892 BitCount = 115 ID = 2016
  35.893628 1  7E0             Rx   d 8 27 0C 00 6C C1 1B 49 1D  Length = 225891 BitCount = 117 ID = 2016
  35.893862 1  7E0             Rx   d 8 28 90 1B CE F9 ED 40 DE  Length = 225892 BitCount = 117 ID = 2016
  35.894098 1  7E0             Rx   d 8 29 60 94 6D 00 4B 06 DF  Length = 227892 BitCount = 118 ID = 2016
  35.894340 1  7E0             Rx   d 8 2A 02 FD FF 91 00 00 35  Length = 233891 BitCount = 121 ID = 2016
  35.894572 1  7E0             Rx   d 8 2B D9 32 3C 60 19 22 1C  Length = 223891 BitCount = 116 ID = 2016
  35.894811 1  7E0             Rx   d 8 2C 00 0F 02 B0 21 53 82  Length = 229883 BitCount = 119 ID = 2016
  35.895045 1  7E0             Rx   d 8 2D 3D 20 1B 82 4D 20 42  Length = 225891 BitCount = 117 ID = 2016
  35.895273 1  7E0             Rx   d 8 2E E2 68 92 C8 92 19 22  Length = 219892 BitCount = 114 ID = 2016
  35.895511 1  7E0             Rx   d 8 2F 20 00 DF 02 2E 00 C8  Length = 229891 BitCount = 119 ID = 2016
  35.895751 1  7E0             Rx   d 8 20 92 99 22 20 00 19 22  Length = 231891 BitCount = 120 ID = 2016
  35.895988 1  7E0             Rx   d 8 21 08 00 01 D2 02 26 D4  Length = 227891 BitCount = 118 ID = 2016
  35.896218 1  7E0             Rx   d 8 22 22 54 22 68 92 C8 92  Length = 221891 BitCount = 115 ID = 2016
  35.896448 1  7E0             Rx   d 8 23 C8 93 C8 94 99 22 20  Length = 221892 BitCount = 115 ID = 2016
  35.896684 1  7E0             Rx   d 8 24 00 99 33 20 00 99 44  Length = 227891 BitCount = 118 ID = 2016
  35.896924 1  7E0             Rx   d 8 25 20 00 19 24 08 00 19  Length = 231892 BitCount = 120 ID = 2016
  35.897163 1  7E0             Rx   d 8 26 32 08 00 01 D2 02 36  Length = 229892 BitCount = 119 ID = 2016
  35.897399 1  7E0             Rx   d 8 27 19 42 04 00 54 33 C8  Length = 227892 BitCount = 118 ID = 2016
  35.897633 1  7E0             Rx   d 8 28 93 99 33 20 00 5F 23  Length = 225891 BitCount = 117 ID = 2016
  35.897869 1  7E0             Rx   d 8 29 04 80 54 32 3C 07 19  Length = 227891 BitCount = 118 ID = 2016
  35.898109 1  7E0             Rx   d 8 2A 32 08 00 01 D2 02 36  Length = 231883 BitCount = 120 ID = 2016
  35.898344 1  7E0             Rx   d 8 2B 54 32 C2 42 01 E4 02  Length = 225891 BitCount = 117 ID = 2016
  35.898582 1  7E0             Rx   d 8 2C 26 74 22 82 02 91 00  Length = 229892 BitCount = 119 ID = 2016
  35.898818 1  7E0             Rx   d 8 2D 00 35 D9 32 3C 60 59  Length = 227891 BitCount = 118 ID = 2016
  35.899058 1  7E0             Rx   d 8 2E 22 18 00 0D 00 80 04  Length = 231891 BitCount = 120 ID = 2016
  35.899289 1  7E0             Rx   d 8 2F C8 92 D4 22 E9 22 16  Length = 221892 BitCount = 115 ID = 2016
  35.899527 1  7E0             Rx   d 8 20 00 C8 92 19 23 10 00  Length = 229892 BitCount = 119 ID = 2016
  35.899757 1  7E0             Rx   d 8 21 68 A3 C8 92 39 23 25  Length = 221892 BitCount = 115 ID = 2016
  35.899991 1  7E0             Rx   d 8 22 00 91 80 03 28 D9 22  Length = 225892 BitCount = 117 ID = 2016
  35.900225 1  7E0             Rx   d 8 23 8C DE 01 23 01 26 39  Length = 225891 BitCount = 117 ID = 2016
  35.900462 1  7E0             Rx   d 8 24 23 01 00 C8 92 E9 F3  Length = 227904 BitCount = 118 ID = 2016
  35.900694 1  7E0             Rx   d 8 25 00 10 C8 94 D4 22 D9  Length = 223892 BitCount = 116 ID = 2016
  35.900930 1  7E0             Rx   d 8 26 23 04 00 E8 B3 6C 22  Length = 227891 BitCount = 118 ID = 2016
  35.901166 1  7E0             Rx   d 8 27 59 22 04 00 6D 00 97  Length = 227891 BitCount = 118 ID = 2016
  35.901404 1  7E0             Rx   d 8 28 1A BB 00 00 F8 CD CF  Length = 229891 BitCount = 119 ID = 2016
  35.901645 1  7E0             Rx   d 8 29 E2 0F 0D 00 C0 04 C8  Length = 231891 BitCount = 120 ID = 2016
  35.901881 1  7E0             Rx   d 8 2A 92 99 22 04 00 2D 02  Length = 227892 BitCount = 118 ID = 2016
  35.902123 1  7E0             Rx   d 8 2B 00 00 0D 00 40 03 BB  Length = 233892 BitCount = 121 ID = 2016
  35.902363 1  7E0             Rx   d 8 2C A0 03 F8 CD CF E2 0F  Length = 231883 BitCount = 120 ID = 2016
  35.902599 1  7E0             Rx   d 8 2D 0D 00 C0 04 6D 00 8B  Length = 227892 BitCount = 118 ID = 2016
  35.902834 1  7E0             Rx   d 8 2E 17 C8 B2 02 2F 19 23  Length = 225892 BitCount = 117 ID = 2016
  35.903070 1  7E0             Rx   d 8 2F 04 00 54 22 19 24 0C  Length = 227892 BitCount = 118 ID = 2016
  35.903302 1  7E0             Rx   d 8 20 00 52 33 42 32 42 43  Length = 223892 BitCount = 116 ID = 2016
  35.903532 1  7E0             Rx   d 8 21 6C 21 74 22 59 23 0C  Length = 221891 BitCount = 115 ID = 2016
  35.905293 1  7E0             Rx   d 8 22 00 19 23 08 00 7F 23  Length = 231891 BitCount = 120 ID = 2016
  35.905533 1  7E0             Rx   d 8 23 04 80 59 22 08 00 C8  Length = 231904 BitCount = 120 ID = 2016
  35.905765 1  7E0             Rx   d 8 24 94 6D 00 71 1A 60 94  Length = 223891 BitCount = 116 ID = 2016
  35.906003 1  7E0             Rx   d 8 25 6D 00 B2 05 DF 02 FD  Length = 229892 BitCount = 119 ID = 2016
  35.906235 1  7E0             Rx   d 8 26 FF C8 92 D4 22 39 22  Length = 223892 BitCount = 116 ID = 2016
  35.906466 1  7E0             Rx   d 8 27 15 00 C2 F2 E9 22 15  Length = 221892 BitCount = 115 ID = 2016
  35.906698 1  7E0             Rx   d 8 28 00 C8 92 D4 22 39 22  Length = 223892 BitCount = 116 ID = 2016
  35.906934 1  7E0             Rx   d 8 29 15 00 F6 2E 91 00 00  Length = 227892 BitCount = 118 ID = 2016
  35.907166 1  7E0             Rx   d 8 2A 35 D9 32 3C 60 19 22  Length = 223891 BitCount = 116 ID = 2016
  35.907402 1  7E0             Rx   d 8 2B 1C 00 C8 93 19 33 08  Length = 227892 BitCount = 118 ID = 2016
  35.907639 1  7E0             Rx   d 8 2C 00 0F 32 E0 20 59 22  Length = 227891 BitCount = 118 ID = 2016
  35.907877 1  7E0             Rx   d 8 2D 1C 00 19 F2 10 10 DF  Length = 229891 BitCount = 119 ID = 2016
  35.908117 1  7E0             Rx   d 8 2E 02 63 00 99 F2 10 10  Length = 231891 BitCount = 120 ID = 2016
  35.908351 1  7E0             Rx   d 8 2F 82 12 D4 22 E9 22 14  Length = 225891 BitCount = 117 ID = 2016
  35.908589 1  7E0             Rx   d 8 20 00 99 F2 10 10 54 2D  Length = 229891 BitCount = 119 ID = 2016
  35.908822 1  7E0             Rx   d 8 21 6D 00 47 17 60 D2 74  Length = 223892 BitCount = 116 ID = 2016
  35.909056 1  7E0             Rx   d 8 22 22 99 F2 10 10 D4 22  Length = 225891 BitCount = 117 ID = 2016
  35.909286 1  7E0             Rx   d 8 23 39 22 15 00 C2 12 E9  Length = 221892 BitCount = 115 ID = 2016
  35.909520 1  7E0             Rx   d 8 24 22 15 00 99 F2 10 10  Length = 225892 BitCount = 117 ID = 2016
  35.909759 1  7E0             Rx   d 8 25 19 22 20 00 DF 02 38  Length = 229892 BitCount = 119 ID = 2016
  35.909993 1  7E0             Rx   d 8 26 00 99 F2 10 10 99 22  Length = 225892 BitCount = 117 ID = 2016
  35.910237 1  7E0             Rx   d 8 27 20 00 19 22 08 00 01  Length = 235891 BitCount = 122 ID = 2016
  35.910473 1  7E0             Rx   d 8 28 D2 02 26 19 F2 10 10  Length = 227891 BitCount = 118 ID = 2016
  35.910707 1  7E0             Rx   d 8 29 99 22 04 00 74 22 99  Length = 225892 BitCount = 117 ID = 2016
  35.910942 1  7E0             Rx   d 8 2A F2 10 10 99 F3 10 10  Length = 225891 BitCount = 117 ID = 2016
  35.911180 1  7E0             Rx   d 8 2B 99 F4 10 10 99 22 20  Length = 229891 BitCount = 119 ID = 2016
  35.911422 1  7E0             Rx   d 8 2C 00 99 33 20 00 99 44  Length = 233891 BitCount = 121 ID = 2016
  35.911662 1  7E0             Rx   d 8 2D 20 00 19 24 08 00 19  Length = 231891 BitCount = 120 ID = 2016
  35.911898 1  7E0             Rx   d 8 2E 32 08 00 C2 14 01 D2  Length = 227891 BitCount = 118 ID = 2016
  35.912137 1  7E0             Rx   d 8 2F 02 36 19 42 04 00 19  Length = 229891 BitCount = 119 ID = 2016
  35.912379 1  7E0             Rx   d 8 20 33 04 00 99 F3 10 10  Length = 233892 BitCount = 121 ID = 2016
  35.912615 1  7E0             Rx   d 8 21 99 33 20 00 5F 23 04  Length = 227891 BitCount = 118 ID = 2016
  35.912849 1  7E0             Rx   d 8 22 80 54 32 3C 08 19 32  Length = 225892 BitCount = 117 ID = 2016
  35.913085 1  7E0             Rx   d 8 23 08 00 01 D2 02 36 19  Length = 227892 BitCount = 118 ID = 2016
  35.913324 1  7E0             Rx   d 8 24 32 04 00 C2 42 01 E4  Length = 229891 BitCount = 119 ID = 2016
  35.913560 1  7E0             Rx   d 8 25 02 26 74 22 91 00 00  Length = 227892 BitCount = 118 ID = 2016
  35.913790 1  7E0             Rx   d 8 26 35 D9 32 3C 60 19 23  Length = 221891 BitCount = 115 ID = 2016
  35.914030 1  7E0             Rx   d 8 27 1C 00 99 F3 10 10 19  Length = 231892 BitCount = 120 ID = 2016
  35.914266 1  7E0             Rx   d 8 28 32 08 00 A6 32 59 22  Length = 227891 BitCount = 118 ID = 2016
  35.914505 1  7E0             Rx   d 8 29 1C 00 82 02 59 F2 10  Length = 229891 BitCount = 119 ID = 2016
  35.914743 1  7E0             Rx   d 8 2A 10 82 02 91 00 00 35  Length = 229904 BitCount = 119 ID = 2016
  35.914973 1  7E0             Rx   d 8 2B D9 32 3C 60 59 22 18  Length = 221891 BitCount = 115 ID = 2016
  35.915213 1  7E0             Rx   d 8 2C 00 0D 00 80 04 19 22  Length = 231883 BitCount = 120 ID = 2016
  35.915450 1  7E0             Rx   d 8 2D 1C 00 3F 28 D9 FE 68  Length = 227892 BitCount = 118 ID = 2016
  35.915684 1  7E0             Rx   d 8 2E A8 E9 FB 01 10 68 9C  Length = 225891 BitCount = 117 ID = 2016
  35.915920 1  7E0             Rx   d 8 2F E9 FA 00 10 E8 BC 6C  Length = 227892 BitCount = 118 ID = 2016
  35.916162 1  7E0             Rx   d 8 20 C1 00 90 91 80 03 F8  Length = 233892 BitCount = 121 ID = 2016
  35.916402 1  7E0             Rx   d 8 21 8F 24 00 F0 D9 FF DC  Length = 231891 BitCount = 120 ID = 2016
  35.916637 1  7E0             Rx   d 8 22 4E 10 FF 91 80 03 28  Length = 225892 BitCount = 117 ID = 2016
  35.916871 1  7E0             Rx   d 8 23 D9 22 D0 4E C8 0F 10  Length = 225891 BitCount = 117 ID = 2016
  35.917105 1  7E0             Rx   d 8 24 22 4C 20 68 0F 4C F0  Length = 225891 BitCount = 117 ID = 2016
  35.917345 1  7E0             Rx   d 8 25 B7 1F 01 FD 68 0F 00  Length = 231891 BitCount = 120 ID = 2016
  35.917585 1  7E0             Rx   d 8 26 90 0D 00 40 03 BB A0  Length = 231892 BitCount = 120 ID = 2016
  35.917826 1  7E0             Rx   d 8 27 03 F8 CD CF E2 0F 0D  Length = 231892 BitCount = 120 ID = 2016
  35.918068 1  7E0             Rx   d 8 28 00 C0 04 91 00 00 F7  Length = 233883 BitCount = 121 ID = 2016
  35.918308 1  7E0             Rx   d 8 29 D9 FF 90 27 82 0F 6D  Length = 231892 BitCount = 120 ID = 2016
  35.918544 1  7E0             Rx   d 8 2A 00 B8 16 C8 BC 39 F8  Length = 227892 BitCount = 118 ID = 2016
  35.918784 1  7E0             Rx   d 8 2B 01 10 E9 FF 01 10 4C  Length = 231892 BitCount = 120 ID = 2016
  35.919015 1  7E0             Rx   d 8 2C C1 54 C3 5A F2 42 F3  Length = 221892 BitCount = 115 ID = 2016
  35.919253 1  7E0             Rx   d 8 2D 39 F9 00 10 59 C2 04  Length = 229891 BitCount = 119 ID = 2016
  35.919491 1  7E0             Rx   d 8 2E 00 74 C3 19 C3 0C 00  Length = 229891 BitCount = 119 ID = 2016
  35.919727 1  7E0             Rx   d 8 2F 82 04 42 3F 68 D2 6C  Length = 227883 BitCount = 118 ID = 2016
  35.919967 1  7E0             Rx   d 8 20 C3 7B 00 00 F7 1B 0F  Length = 231891 BitCount = 120 ID = 2016
  35.920202 1  7E0             Rx   d 8 21 8C F7 68 BF 6D 00 A0  Length = 225891 BitCount = 117 ID = 2016
  35.920438 1  7E0             Rx   d 8 22 19 6D 00 A4 19 6D 00  Length = 227891 BitCount = 118 ID = 2016
  35.920676 1  7E0             Rx   d 8 23 99 16 C8 B2 02 2F 82  Length = 229891 BitCount = 119 ID = 2016
  35.920914 1  7E0             Rx   d 8 24 04 19 22 04 00 54 23  Length = 229892 BitCount = 119 ID = 2016
  35.921145 1  7E0             Rx   d 8 25 52 22 42 23 74 23 19  Length = 221892 BitCount = 115 ID = 2016
  35.921379 1  7E0             Rx   d 8 26 23 0C 00 42 32 59 22  Length = 225883 BitCount = 117 ID = 2016
  35.921615 1  7E0             Rx   d 8 27 0C 00 6D 00 98 19 C8  Length = 227892 BitCount = 118 ID = 2016
  35.921845 1  7E0             Rx   d 8 28 B2 48 72 48 A3 6C 21  Length = 221892 BitCount = 115 ID = 2016
  35.922083 1  7E0             Rx   d 8 29 7F 23 04 80 6D FF 92  Length = 229892 BitCount = 119 ID = 2016
  35.922322 1  7E0             Rx   d 8 2A FB 6D 00 7F 16 C8 BF  Length = 229892 BitCount = 119 ID = 2016
  35.922554 1  7E0             Rx   d 8 2B 4C F1 48 03 5A F2 42  Length = 223891 BitCount = 116 ID = 2016
  35.922788 1  7E0             Rx   d 8 2C F3 68 03 48 33 42 3F  Length = 225891 BitCount = 117 ID = 2016
  35.923030 1  7E0             Rx   d 8 2D 68 3F 91 00 00 F7 D9  Length = 233891 BitCount = 121 ID = 2016
  35.923268 1  7E0             Rx   d 8 2E FF 90 27 E8 BC E9 F9  Length = 229891 BitCount = 119 ID = 2016
  35.925147 1  7E0             Rx   d 8 2F 00 10 59 C2 04 00 E9  Length = 235891 BitCount = 122 ID = 2016
  35.925391 1  7E0             Rx   d 8 20 F8 01 10 0D 00 40 02  Length = 235892 BitCount = 122 ID = 2016
  35.925643 1  7E0             Rx   d 8 21 00 00 00 00 00 00 00  Length = 243891 BitCount = 126 ID = 2016
  35.925885 1  7E0             Rx   d 8 22 80 0D 00 40 02 00 80  Length = 233892 BitCount = 121 ID = 2016
  35.926125 1  7E0             Rx   d 8 23 0D 00 40 03 BB A0 03  Length = 231892 BitCount = 120 ID = 2016
  35.926368 1  7E0             Rx   d 8 24 F8 CD CF E2 0F 0D 00  Length = 233892 BitCount = 121 ID = 2016
  35.926604 1  7E0             Rx   d 8 25 C0 04 91 20 00 F6 D9  Length = 227891 BitCount = 118 ID = 2016
  35.926846 1  7E0             Rx   d 8 26 FF E4 A5 82 0F 6D 00  Length = 233891 BitCount = 121 ID = 2016
  35.927082 1  7E0             Rx   d 8 27 53 16 C8 BC 39 F8 01  Length = 227891 BitCount = 118 ID = 2016
  35.927321 1  7E0             Rx   d 8 28 10 E9 FF 01 10 4C C1  Length = 229891 BitCount = 119 ID = 2016
  35.927549 1  7E0             Rx   d 8 29 54 C3 5A F2 42 F3 39  Length = 219892 BitCount = 114 ID = 2016
  35.927793 1  7E0             Rx   d 8 2A F9 00 10 59 C2 04 00  Length = 235892 BitCount = 122 ID = 2016
  35.928033 1  7E0             Rx   d 8 2B 74 C3 19 C3 0C 00 82  Length = 231892 BitCount = 120 ID = 2016
  35.928265 1  7E0             Rx   d 8 2C 14 42 3F 68 D2 6C C3  Length = 223891 BitCount = 116 ID = 2016
  35.928504 1  7E0             Rx   d 8 2D 7B 20 00 F6 1B 4F ED  Length = 229892 BitCount = 119 ID = 2016
  35.928740 1  7E0             Rx   d 8 2E F5 68 BF 6D 00 3B 19  Length = 227892 BitCount = 118 ID = 2016
  35.928978 1  7E0             Rx   d 8 2F 6D 00 3F 19 6D 00 34  Length = 229891 BitCount = 119 ID = 2016
  35.929214 1  7E0             Rx   d 8 20 16 C8 B2 02 2F 82 14  Length = 227892 BitCount = 118 ID = 2016
  35.929452 1  7E0             Rx   d 8 21 19 22 04 00 54 23 52  Length = 229891 BitCount = 119 ID = 2016
  35.929681 1  7E0             Rx   d 8 22 22 42 23 74 23 19 23  Length = 219891 BitCount = 114 ID = 2016
  35.929919 1  7E0             Rx   d 8 23 0C 00 42 32 59 22 0C  Length = 229892 BitCount = 119 ID = 2016
  35.930155 1  7E0             Rx   d 8 24 00 6D 00 33 19 C8 B2  Length = 227891 BitCount = 118 ID = 2016
  35.930385 1  7E0             Rx   d 8 25 48 72 48 A3 6C 21 7F  Length = 221891 BitCount = 115 ID = 2016
  35.930625 1  7E0             Rx   d 8 26 23 04 80 6D FF 89 FC  Length = 231892 BitCount = 120 ID = 2016
  35.930866 1  7E0             Rx   d 8 27 6D 00 1A 16 C8 BF 4C  Length = 231891 BitCount = 120 ID = 2016
  35.931096 1  7E0             Rx   d 8 28 F1 48 03 5A F2 42 F3  Length = 221892 BitCount = 115 ID = 2016
  35.931332 1  7E0             Rx   d 8 29 68 03 48 33 42 3F 68  Length = 227892 BitCount = 118 ID = 2016
  35.931568 1  7E0             Rx   d 8 2A 3F 91 20 00 F6 D9 FF  Length = 227891 BitCount = 118 ID = 2016
  35.931807 1  7E0             Rx   d 8 2B E4 A5 E8 BC E9 F9 00  Length = 229891 BitCount = 119 ID = 2016
  35.932047 1  7E0             Rx   d 8 2C 10 59 C2 04 00 E9 F8  Length = 231883 BitCount = 120 ID = 2016
  35.932289 1  7E0             Rx   d 8 2D 01 10 0D 00 40 02 00  Length = 233891 BitCount = 121 ID = 2016
  35.932537 1  7E0             Rx   d 8 2E 00 00 00 00 00 00 80  Length = 239892 BitCount = 124 ID = 2016
  35.932777 1  7E0             Rx   d 8 2F 0D 00 40 02 00 80 0D  Length = 231891 BitCount = 120 ID = 2016
  35.933020 1  7E0             Rx   d 8 20 00 40 03 BB A0 03 F8  Length = 233891 BitCount = 121 ID = 2016
  35.933262 1  7E0             Rx   d 8 21 CD CF E2 0F 0D 00 C0  Length = 233892 BitCount = 121 ID = 2016
  35.933500 1  7E0             Rx   d 8 22 04 91 00 00 F5 D9 FF  Length = 229892 BitCount = 119 ID = 2016
  35.933738 1  7E0             Rx   d 8 23 3C 60 82 0F 6D 00 EE  Length = 229883 BitCount = 119 ID = 2016
  35.933976 1  7E0             Rx   d 8 24 15 C8 BC 39 F8 01 10  Length = 229892 BitCount = 119 ID = 2016
  35.934215 1  7E0             Rx   d 8 25 E9 FF 01 10 4C C1 54  Length = 229891 BitCount = 119 ID = 2016
  35.934445 1  7E0             Rx   d 8 26 C3 5A F2 42 F3 39 F9  Length = 221892 BitCount = 115 ID = 2016
  35.934685 1  7E0             Rx   d 8 27 00 10 59 C2 04 00 74  Length = 231892 BitCount = 120 ID = 2016
  35.934919 1  7E0             Rx   d 8 28 C3 19 C3 0C 00 82 24  Length = 225891 BitCount = 117 ID = 2016
  35.935149 1  7E0             Rx   d 8 29 42 3F 68 D2 6C C3 7B  Length = 221891 BitCount = 115 ID = 2016
  35.935386 1  7E0             Rx   d 8 2A 00 00 F5 1B CF 1E F0  Length = 227883 BitCount = 118 ID = 2016
  35.935622 1  7E0             Rx   d 8 2B 68 BF 6D 00 D6 18 6D  Length = 227891 BitCount = 118 ID = 2016
  35.935860 1  7E0             Rx   d 8 2C 00 DA 18 6D 00 CF 15  Length = 229892 BitCount = 119 ID = 2016
  35.936098 1  7E0             Rx   d 8 2D C8 B2 02 2F 82 24 19  Length = 229891 BitCount = 119 ID = 2016
  35.936332 1  7E0             Rx   d 8 2E 22 04 00 54 23 52 22  Length = 225891 BitCount = 117 ID = 2016
  35.936561 1  7E0             Rx   d 8 2F 42 23 74 23 19 23 0C  Length = 219892 BitCount = 114 ID = 2016
  35.936799 1  7E0             Rx   d 8 20 00 42 32 59 22 0C 00  Length = 229892 BitCount = 119 ID = 2016
  35.937029 1  7E0             Rx   d 8 21 6D 00 CE 18 C8 B2 48  Length = 221883 BitCount = 115 ID = 2016
  35.937259 1  7E0             Rx   d 8 22 72 48 A3 6C 21 7F 23  Length = 221892 BitCount = 115 ID = 2016
  35.937500 1  7E0             Rx   d 8 23 04 80 6D FF 81 FD 6D  Length = 231891 BitCount = 120 ID = 2016
  35.937736 1  7E0             Rx   d 8 24 00 B5 15 C8 BF 4C F1  Length = 227892 BitCount = 118 ID = 2016
  35.937966 1  7E0             Rx   d 8 25 48 03 5A F2 42 F3 68  Length = 221891 BitCount = 115 ID = 2016
  35.938206 1  7E0             Rx   d 8 26 03 48 33 42 3F 68 3F  Length = 231892 BitCount = 120 ID = 2016
  35.938442 1  7E0             Rx   d 8 27 91 00 00 F5 D9 FF 3C  Length = 227883 BitCount = 118 ID = 2016
  35.938681 1  7E0             Rx   d 8 28 60 E8 BC E9 F9 00 10  Length = 229891 BitCount = 119 ID = 2016
  35.938923 1  7E0             Rx   d 8 29 59 C2 04 00 E9 F8 01  Length = 233892 BitCount = 121 ID = 2016
  35.939167 1  7E0             Rx   d 8 2A 10 0D 00 40 02 00 00  Length = 235891 BitCount = 122 ID = 2016
  35.939415 1  7E0             Rx   d 8 2B 00 00 00 00 00 80 0D  Length = 239891 BitCount = 124 ID = 2016
  35.939661 1  7E0             Rx   d 8 2C 00 40 02 00 80 82 0F  Length = 237892 BitCount = 123 ID = 2016
  35.939902 1  7E0             Rx   d 8 2D 3C 02 24 4F 9F 04 FF  Length = 231891 BitCount = 120 ID = 2016
  35.940138 1  7E0             Rx   d 8 2E FF 00 90 B9 4F 10 00  Length = 227892 BitCount = 118 ID = 2016
  35.940374 1  7E0             Rx   d 8 2F CC 40 9E 1E 6E 04 DF  Length = 227892 BitCount = 118 ID = 2016
  35.940614 1  7E0             Rx   d 8 20 2F 4C 80 3C 2F 91 00  Length = 231891 BitCount = 120 ID = 2016
  35.940848 1  7E0             Rx   d 8 21 00 47 D9 44 90 27 3B  Length = 225892 BitCount = 117 ID = 2016
  35.941093 1  7E0             Rx   d 8 22 80 05 40 6D FF EC FF  Length = 235883 BitCount = 122 ID = 2016
  35.941333 1  7E0             Rx   d 8 23 91 00 00 47 D9 44 F8  Length = 231891 BitCount = 120 ID = 2016
  35.941575 1  7E0             Rx   d 8 24 07 3B 80 13 40 6D FF  Length = 233892 BitCount = 121 ID = 2016
  35.941813 1  7E0             Rx   d 8 25 E4 FF 91 00 00 47 D9  Length = 229891 BitCount = 119 ID = 2016
  35.942052 1  7E0             Rx   d 8 26 44 A8 37 3B 00 35 40  Length = 229891 BitCount = 119 ID = 2016
  35.942288 1  7E0             Rx   d 8 27 6D FF DC FF 3C 2F 91  Length = 227892 BitCount = 118 ID = 2016
  35.942524 1  7E0             Rx   d 8 28 20 00 46 D9 44 E4 A5  Length = 227891 BitCount = 118 ID = 2016
  35.942762 1  7E0             Rx   d 8 29 3B 80 05 40 6D FF D3  Length = 229883 BitCount = 119 ID = 2016
  35.942998 1  7E0             Rx   d 8 2A FF 91 20 00 46 D9 44  Length = 227892 BitCount = 118 ID = 2016
  35.943233 1  7E0             Rx   d 8 2B DC C5 3B 00 15 40 6D  Length = 225891 BitCount = 117 ID = 2016
  35.943473 1  7E0             Rx   d 8 2C FF CB FF 91 20 00 46  Length = 231892 BitCount = 120 ID = 2016
  35.945237 1  7E0             Rx   d 8 2D D9 44 FC B5 3C 15 91  Length = 225892 BitCount = 117 ID = 2016
  35.945473 1  7E0             Rx   d 8 2E 00 00 45 D9 44 3C 60  Length = 227892 BitCount = 118 ID = 2016
  35.945713 1  7E0             Rx   d 8 2F 3B 80 05 40 6D FF BE  Length = 231891 BitCount = 120 ID = 2016
  35.945954 1  7E0             Rx   d 8 20 FF 91 00 00 45 D9 44  Length = 231891 BitCount = 120 ID = 2016
  35.946188 1  7E0             Rx   d 8 21 34 80 3B 80 25 40 6D  Length = 225892 BitCount = 117 ID = 2016
  35.946428 1  7E0             Rx   d 8 22 FF B6 FF 91 00 00 45  Length = 231891 BitCount = 120 ID = 2016
  35.946664 1  7E0             Rx   d 8 23 D9 44 14 80 3B 00 02  Length = 227892 BitCount = 118 ID = 2016
  35.946909 1  7E0             Rx   d 8 24 40 6D FF AE FF 82 0F  Length = 235892 BitCount = 122 ID = 2016
  35.947145 1  7E0             Rx   d 8 25 68 7F 68 AF 82 1F E9  Length = 227892 BitCount = 118 ID = 2016
  35.947389 1  7E0             Rx   d 8 26 FF 00 10 82 0F E9 FF  Length = 235891 BitCount = 122 ID = 2016
  35.947627 1  7E0             Rx   d 8 27 01 10 82 0F 68 6F 0D  Length = 229891 BitCount = 119 ID = 2016
  35.947867 1  7E0             Rx   d 8 28 00 80 04 6D 00 35 15  Length = 231891 BitCount = 120 ID = 2016
  35.948102 1  7E0             Rx   d 8 29 D9 F2 30 00 E8 B2 59  Length = 225891 BitCount = 117 ID = 2016
  35.948342 1  7E0             Rx   d 8 2A FF 04 10 59 FF 08 10  Length = 231892 BitCount = 120 ID = 2016
  35.948576 1  7E0             Rx   d 8 2B 68 D2 6D 00 40 18 02  Length = 225904 BitCount = 117 ID = 2016
  35.948812 1  7E0             Rx   d 8 2C 28 02 3F 6D 00 42 18  Length = 227891 BitCount = 118 ID = 2016
  35.949044 1  7E0             Rx   d 8 2D 0B 28 80 20 52 33 59  Length = 223892 BitCount = 116 ID = 2016
  35.949285 1  7E0             Rx   d 8 2E F2 04 10 59 F3 08 10  Length = 231892 BitCount = 120 ID = 2016
  35.949527 1  7E0             Rx   d 8 2F 00 90 82 0F 91 00 00  Length = 233892 BitCount = 121 ID = 2016
  35.949771 1  7E0             Rx   d 8 20 F7 E9 FF EC B7 82 0F  Length = 235892 BitCount = 122 ID = 2016
  35.950013 1  7E0             Rx   d 8 21 91 00 00 F7 59 FF E8  Length = 233892 BitCount = 121 ID = 2016
  35.950251 1  7E0             Rx   d 8 22 B7 0D 00 80 04 91 00  Length = 229891 BitCount = 119 ID = 2016
  35.950486 1  7E0             Rx   d 8 23 00 47 D9 44 D0 77 3B  Length = 225892 BitCount = 117 ID = 2016
  35.950728 1  7E0             Rx   d 8 24 00 03 40 6D FF 75 FF  Length = 233891 BitCount = 121 ID = 2016
  35.950966 1  7E0             Rx   d 8 25 91 00 00 47 D9 44 E0  Length = 229891 BitCount = 119 ID = 2016
  35.951204 1  7E0             Rx   d 8 26 67 3B 00 03 40 6D FF  Length = 229891 BitCount = 119 ID = 2016
  35.951444 1  7E0             Rx   d 8 27 6D FF 91 00 00 47 D9  Length = 231891 BitCount = 120 ID = 2016
  35.951681 1  7E0             Rx   d 8 28 44 D4 67 3B C0 00 40  Length = 227891 BitCount = 118 ID = 2016
  35.951927 1  7E0             Rx   d 8 29 6D 00 00 00 00 00 00  Length = 237891 BitCount = 123 ID = 2016
  35.953541 1  7E8             Rx   d 8 02 76 01 00 00 00 00 00  Length = 239892 BitCount = 124 ID = 2024
  36.007265 1   Statistic: D 593 R 0 XD 0 XR 0 E 0 O 0 B 14.11%
  36.007265 CAN 1 Status:chip status error active
  36.297492 1  7E0             Rx   d 8 1F FF 36 02 FF 65 FF 91  Length = 231892 BitCount = 120 ID = 2016
  36.297813 1  7E8             Rx   d 3 30 00 00  Length = 145895 BitCount = 77 ID = 2024
  36.311891 1  7E0             Rx   d 8 21 00 00 47 D9 44 F0 57  Length = 229891 BitCount = 119 ID = 2016
  36.312127 1  7E0             Rx   d 8 22 3B 40 02 40 6D FF 5D  Length = 227892 BitCount = 118 ID = 2016
  36.312367 1  7E0             Rx   d 8 23 FF 91 00 00 47 D9 44  Length = 231891 BitCount = 120 ID = 2016
  36.312604 1  7E0             Rx   d 8 24 E4 B7 82 44 7B 00 00  Length = 227892 BitCount = 118 ID = 2016
  36.312842 1  7E0             Rx   d 8 25 F7 6D FF 54 FF 1B 0F  Length = 229883 BitCount = 119 ID = 2016
  36.313080 1  7E0             Rx   d 8 26 E5 F7 91 00 00 27 D9  Length = 229891 BitCount = 119 ID = 2016
  36.313318 1  7E0             Rx   d 8 27 2F C0 87 68 1F 59 2F  Length = 229892 BitCount = 119 ID = 2016
  36.313557 1  7E0             Rx   d 8 28 C0 87 7B 00 00 F7 1B  Length = 229891 BitCount = 119 ID = 2016
  36.313797 1  7E0             Rx   d 8 29 0F E6 F7 68 3F 68 2F  Length = 231891 BitCount = 120 ID = 2016
  36.314035 1  7E0             Rx   d 8 2A 7B 00 00 F7 1B 0F E7  Length = 229892 BitCount = 119 ID = 2016
  36.314273 1  7E0             Rx   d 8 2B F7 68 5F 68 4F 7B 00  Length = 229891 BitCount = 119 ID = 2016
  36.314513 1  7E0             Rx   d 8 2C 00 F7 1B 4F E8 F7 68  Length = 231883 BitCount = 120 ID = 2016
  36.314752 1  7E0             Rx   d 8 2D 7F 68 6F 7B 00 00 F7  Length = 229892 BitCount = 119 ID = 2016
  36.314988 1  7E0             Rx   d 8 2E 1B 0F E9 F7 68 9F 68  Length = 227891 BitCount = 118 ID = 2016
  36.315226 1  7E0             Rx   d 8 2F 8F 7B 00 00 F7 1B 8F  Length = 229892 BitCount = 119 ID = 2016
  36.315460 1  7E0             Rx   d 8 20 E9 F7 68 BF 68 AF 7B  Length = 225892 BitCount = 117 ID = 2016
  36.315696 1  7E0             Rx   d 8 21 00 00 F7 1B 4F EA F7  Length = 227891 BitCount = 118 ID = 2016
  36.315935 1  7E0             Rx   d 8 22 68 DF 68 CF 7B 00 00  Length = 229892 BitCount = 119 ID = 2016
  36.316171 1  7E0             Rx   d 8 23 F7 1B CF EA F7 68 FF  Length = 227891 BitCount = 118 ID = 2016
  36.316405 1  7E0             Rx   d 8 24 68 EF 7B 00 00 F7 1B  Length = 225891 BitCount = 117 ID = 2016
  36.316643 1  7E0             Rx   d 8 25 4F EB F7 59 FF 04 10  Length = 229892 BitCount = 119 ID = 2016
  36.316889 1  7E0             Rx   d 8 26 59 FF 00 10 7B 00 00  Length = 237891 BitCount = 123 ID = 2016
  36.317130 1  7E0             Rx   d 8 27 F7 1B 8F ED F7 59 FF  Length = 231892 BitCount = 120 ID = 2016
  36.317372 1  7E0             Rx   d 8 28 0C 10 59 FF 08 10 00  Length = 233891 BitCount = 121 ID = 2016
  36.317608 1  7E0             Rx   d 8 29 90 00 90 91 10 00 27  Length = 227892 BitCount = 118 ID = 2016
  36.317842 1  7E0             Rx   d 8 2A 39 2F 1C 08 40 4F 40  Length = 225892 BitCount = 117 ID = 2016
  36.318083 1  7E0             Rx   d 8 2B 5C 1E 24 DF 3F 21 80  Length = 231892 BitCount = 120 ID = 2016
  36.318317 1  7E0             Rx   d 8 2C 3C 14 B9 4F 10 00 5E  Length = 225892 BitCount = 117 ID = 2016
  36.318551 1  7E0             Rx   d 8 2D 19 91 80 03 48 D9 44  Length = 225892 BitCount = 117 ID = 2016
  36.318787 1  7E0             Rx   d 8 2E 14 FE 40 F5 40 C6 6D  Length = 227891 BitCount = 118 ID = 2016
  36.319023 1  7E0             Rx   d 8 2F 00 B1 17 B9 FF 10 00  Length = 227892 BitCount = 118 ID = 2016
  36.319258 1  7E0             Rx   d 8 20 91 80 03 48 D9 44 54  Length = 225891 BitCount = 117 ID = 2016
  36.319490 1  7E0             Rx   d 8 21 9E EE 0D 3C 08 B9 4F  Length = 223891 BitCount = 116 ID = 2016
  36.319730 1  7E0             Rx   d 8 22 10 00 EE 09 91 80 03  Length = 231904 BitCount = 120 ID = 2016
  36.319962 1  7E0             Rx   d 8 23 48 D9 44 6C 8E 40 F5  Length = 223891 BitCount = 116 ID = 2016
  36.320196 1  7E0             Rx   d 8 24 40 C6 1D 00 9E 17 00  Length = 225892 BitCount = 117 ID = 2016
  36.320433 1  7E0             Rx   d 8 25 90 4D C0 E1 FF 7B 80  Length = 227892 BitCount = 118 ID = 2016
  36.320665 1  7E0             Rx   d 8 26 03 28 1B 42 B5 2E 13  Length = 223891 BitCount = 116 ID = 2016
  36.320901 1  7E0             Rx   d 8 27 4F 21 32 60 3F C8 0F  Length = 227892 BitCount = 118 ID = 2016
  36.321137 1  7E0             Rx   d 8 28 4D C0 E2 8F 0D 00 40  Length = 227892 BitCount = 118 ID = 2016
  36.321373 1  7E0             Rx   d 8 29 03 BB A0 03 F8 CD CF  Length = 227891 BitCount = 118 ID = 2016
  36.321614 1  7E0             Rx   d 8 2A E2 0F 0D 00 C0 04 39  Length = 231892 BitCount = 120 ID = 2016
  36.321852 1  7E0             Rx   d 8 2B FF 0C 10 EE 13 82 12  Length = 229891 BitCount = 119 ID = 2016
  36.322086 1  7E0             Rx   d 8 2C 54 A3 39 F9 00 10 E9  Length = 225891 BitCount = 117 ID = 2016
  36.322324 1  7E0             Rx   d 8 2D F2 0C 10 28 85 68 36  Length = 229892 BitCount = 119 ID = 2016
  36.322562 1  7E0             Rx   d 8 2E 68 47 68 53 E9 F2 00  Length = 229891 BitCount = 119 ID = 2016
  36.322801 1  7E0             Rx   d 8 2F 10 6D 00 7E 17 E9 F9  Length = 229891 BitCount = 119 ID = 2016
  36.323039 1  7E0             Rx   d 8 20 00 10 E9 FF 0C 10 CD  Length = 229892 BitCount = 119 ID = 2016
  36.323279 1  7E0             Rx   d 8 21 C8 E2 0F 0D 00 C0 04  Length = 231891 BitCount = 120 ID = 2016
  36.323515 1  7E0             Rx   d 8 22 00 90 20 08 40 4F 4D  Length = 227892 BitCount = 118 ID = 2016
  36.323752 1  7E0             Rx   d 8 23 C0 E1 FF 7B 80 03 28  Length = 227892 BitCount = 118 ID = 2016
  36.323982 1  7E0             Rx   d 8 24 1B 42 B5 2E 13 4F 21  Length = 221891 BitCount = 115 ID = 2016
  36.324214 1  7E0             Rx   d 8 25 32 60 3D D4 DC 4D C0  Length = 223892 BitCount = 116 ID = 2016
  36.324452 1  7E0             Rx   d 8 26 E2 9F 0D 00 40 03 BB  Length = 229892 BitCount = 119 ID = 2016
  36.324692 1  7E0             Rx   d 8 27 A0 03 F8 CD CF E2 0F  Length = 231891 BitCount = 120 ID = 2016
  36.324933 1  7E0             Rx   d 8 28 0D 00 C0 04 6D 00 63  Length = 231892 BitCount = 120 ID = 2016
  36.325171 1  7E0             Rx   d 8 29 17 DF 02 5B 01 39 C2  Length = 229891 BitCount = 119 ID = 2016
  36.325413 1  7E0             Rx   d 8 2A 00 10 39 FF 24 00 82  Length = 233891 BitCount = 121 ID = 2016
  36.325657 1  7E0             Rx   d 8 2B 18 26 2F DF 0F 54 01  Length = 235891 BitCount = 122 ID = 2016
  36.325897 1  7E0             Rx   d 8 2C 39 F2 25 00 91 00 00  Length = 231892 BitCount = 120 ID = 2016
  36.326130 1  7E0             Rx   d 8 2D 27 D9 22 E4 B7 01 22  Length = 223892 BitCount = 116 ID = 2016
  36.326368 1  7E0             Rx   d 8 2E 00 26 0C 20 6E 12 4C  Length = 229883 BitCount = 119 ID = 2016
  36.326604 1  7E0             Rx   d 8 2F C8 6E 05 99 C2 20 00  Length = 227892 BitCount = 118 ID = 2016
  36.326836 1  7E0             Rx   d 8 20 0C 2D 3C 09 19 C3 24  Length = 223892 BitCount = 116 ID = 2016
  36.327074 1  7E0             Rx   d 8 21 00 82 0F 76 35 99 C2  Length = 229892 BitCount = 119 ID = 2016
  36.327311 1  7E0             Rx   d 8 22 24 00 39 2F 25 00 82  Length = 227892 BitCount = 118 ID = 2016
  36.327547 1  7E0             Rx   d 8 23 18 5F 2F 39 81 B9 F2  Length = 227891 BitCount = 118 ID = 2016
  36.327789 1  7E0             Rx   d 8 24 14 00 7B 80 03 F8 1B  Length = 233891 BitCount = 121 ID = 2016
  36.328023 1  7E0             Rx   d 8 25 4F B5 FE 13 42 21 3F  Length = 225891 BitCount = 117 ID = 2016
  36.328260 1  7E0             Rx   d 8 26 3B 30 01 80 60 32 D4  Length = 227891 BitCount = 118 ID = 2016
  36.328498 1  7E0             Rx   d 8 27 22 39 2F 14 10 DF 0F  Length = 229891 BitCount = 119 ID = 2016
  36.328736 1  7E0             Rx   d 8 28 29 01 DF 12 66 00 91  Length = 229904 BitCount = 119 ID = 2016
  36.328974 1  7E0             Rx   d 8 29 00 00 C7 D9 CC A8 27  Length = 229891 BitCount = 119 ID = 2016
  36.329206 1  7E0             Rx   d 8 2A 76 25 DF 22 29 81 1D  Length = 223892 BitCount = 116 ID = 2016
  36.329445 1  7E0             Rx   d 8 2B 00 B9 00 40 C4 6D 00  Length = 229892 BitCount = 119 ID = 2016
  36.329685 1  7E0             Rx   d 8 2C 34 02 DF 02 FD FF C8  Length = 231892 BitCount = 120 ID = 2016
  36.329923 1  7E0             Rx   d 8 2D 0C 39 FF 1C 00 91 00  Length = 229892 BitCount = 119 ID = 2016
  36.330157 1  7E0             Rx   d 8 2E 00 27 39 C3 15 00 D9  Length = 225892 BitCount = 117 ID = 2016
  36.330391 1  7E0             Rx   d 8 2F 22 90 27 5F F3 BD 00  Length = 225891 BitCount = 117 ID = 2016
  36.330632 1  7E0             Rx   d 8 20 82 1F E9 CF 14 00 6D  Length = 231892 BitCount = 120 ID = 2016
  36.330864 1  7E0             Rx   d 8 21 00 E1 13 C8 02 74 C2  Length = 223891 BitCount = 116 ID = 2016
  36.331096 1  7E0             Rx   d 8 22 39 2F 15 00 C2 1F E9  Length = 223891 BitCount = 116 ID = 2016
  36.331332 1  7E0             Rx   d 8 23 2F 15 00 C8 82 BD 02  Length = 227891 BitCount = 118 ID = 2016
  36.331574 1  7E0             Rx   d 8 24 1A 00 4C 22 91 00 00  Length = 233891 BitCount = 121 ID = 2016
  36.331811 1  7E0             Rx   d 8 25 37 D9 33 C0 87 90 32  Length = 227891 BitCount = 118 ID = 2016
  36.332047 1  7E0             Rx   d 8 26 99 22 04 00 EC 20 C8  Length = 227892 BitCount = 118 ID = 2016
  36.332285 1  7E0             Rx   d 8 27 82 4C 22 19 24 04 00  Length = 229891 BitCount = 119 ID = 2016
  36.332519 1  7E0             Rx   d 8 28 C2 1F 06 2F 10 34 54  Length = 225892 BitCount = 117 ID = 2016
  36.332755 1  7E0             Rx   d 8 29 43 1B 43 00 20 5F 43  Length = 227892 BitCount = 118 ID = 2016
  36.332990 1  7E0             Rx   d 8 2A 03 80 54 22 10 33 74  Length = 225892 BitCount = 117 ID = 2016
  36.333226 1  7E0             Rx   d 8 2B 32 91 00 00 27 D9 22  Length = 227892 BitCount = 118 ID = 2016
  36.333460 1  7E0             Rx   d 8 2C 90 27 4C 27 48 22 A6  Length = 225891 BitCount = 117 ID = 2016
  36.333696 1  7E0             Rx   d 8 2D 2F 6C 27 82 0F 19 2A  Length = 227891 BitCount = 118 ID = 2016
  36.333937 1  7E0             Rx   d 8 2E 1C 00 19 2B 28 00 6C  Length = 231892 BitCount = 120 ID = 2016
  36.338501 1  7E0             Rx   d 8 2F 26 0D 00 80 04 40 F4  Length = 229892 BitCount = 119 ID = 2016
  36.338741 1  7E0             Rx   d 8 20 6D 00 DF 16 B9 DF 10  Length = 231891 BitCount = 120 ID = 2016
  36.338981 1  7E0             Rx   d 8 21 00 EE 0C 02 9F 16 FF  Length = 231892 BitCount = 120 ID = 2016
  36.339223 1  7E0             Rx   d 8 22 82 08 DF 0F D6 80 7F  Length = 233891 BitCount = 121 ID = 2016
  36.339460 1  7E0             Rx   d 8 23 AB D4 80 6D FF B1 F8  Length = 227891 BitCount = 118 ID = 2016
  36.339704 1  7E0             Rx   d 8 24 1D 00 D0 00 82 04 1D  Length = 235891 BitCount = 122 ID = 2016
  36.339944 1  7E0             Rx   d 8 25 00 BF 00 91 20 00 C6  Length = 231892 BitCount = 120 ID = 2016
  36.340176 1  7E0             Rx   d 8 26 D9 CC FC A5 40 C4 6D  Length = 223892 BitCount = 116 ID = 2016
  36.340420 1  7E0             Rx   d 8 27 00 D5 01 DF 02 FD FF  Length = 235892 BitCount = 122 ID = 2016
  36.340659 1  7E0             Rx   d 8 28 C8 0C 39 FF 1C 00 91  Length = 229892 BitCount = 119 ID = 2016
  36.340895 1  7E0             Rx   d 8 29 20 00 26 39 C3 15 00  Length = 227891 BitCount = 118 ID = 2016
  36.341125 1  7E0             Rx   d 8 2A D9 22 E4 A5 5F F3 5E  Length = 221904 BitCount = 115 ID = 2016
  36.341365 1  7E0             Rx   d 8 2B 00 82 1F E9 CF 14 00  Length = 231892 BitCount = 120 ID = 2016
  36.341602 1  7E0             Rx   d 8 2C 6D 00 82 13 C8 02 74  Length = 227891 BitCount = 118 ID = 2016
  36.341834 1  7E0             Rx   d 8 2D C2 39 2F 15 00 C2 1F  Length = 223891 BitCount = 116 ID = 2016
  36.342068 1  7E0             Rx   d 8 2E E9 2F 15 00 C8 82 BD  Length = 225891 BitCount = 117 ID = 2016
  36.342308 1  7E0             Rx   d 8 2F 02 1A 00 4C 22 91 00  Length = 231891 BitCount = 120 ID = 2016
  36.342546 1  7E0             Rx   d 8 20 00 37 D9 33 C0 87 90  Length = 229892 BitCount = 119 ID = 2016
  36.342783 1  7E0             Rx   d 8 21 32 99 22 04 00 EC 20  Length = 227892 BitCount = 118 ID = 2016
  36.343017 1  7E0             Rx   d 8 22 C8 82 4C 22 19 24 04  Length = 225891 BitCount = 117 ID = 2016
  36.343255 1  7E0             Rx   d 8 23 00 C2 1F 06 2F 10 34  Length = 229892 BitCount = 119 ID = 2016
  36.343493 1  7E0             Rx   d 8 24 54 43 1B 43 00 20 5F  Length = 229892 BitCount = 119 ID = 2016
  36.343727 1  7E0             Rx   d 8 25 43 03 80 54 22 10 33  Length = 225892 BitCount = 117 ID = 2016
  36.343962 1  7E0             Rx   d 8 26 74 32 91 20 00 26 D9  Length = 225892 BitCount = 117 ID = 2016
  36.344192 1  7E0             Rx   d 8 27 22 E4 A5 4C 27 48 22  Length = 221891 BitCount = 115 ID = 2016
  36.344426 1  7E0             Rx   d 8 28 A6 2F 6C 27 82 0F 19  Length = 225891 BitCount = 117 ID = 2016
  36.344664 1  7E0             Rx   d 8 29 2A 1C 00 19 2B 28 00  Length = 229892 BitCount = 119 ID = 2016
  36.344904 1  7E0             Rx   d 8 2A 6C 26 0D 00 80 04 40  Length = 231891 BitCount = 120 ID = 2016
  36.345147 1  7E0             Rx   d 8 2B F4 6D 00 80 16 B9 DF  Length = 233891 BitCount = 121 ID = 2016
  36.345385 1  7E0             Rx   d 8 2C 10 00 5E 1A 02 9F 16  Length = 229891 BitCount = 119 ID = 2016
  36.345623 1  7E0             Rx   d 8 2D FF 82 08 EE 77 7F AB  Length = 229891 BitCount = 119 ID = 2016
  36.345859 1  7E0             Rx   d 8 2E 76 80 6D FF AF F9 3C  Length = 227892 BitCount = 118 ID = 2016
  36.346093 1  7E0             Rx   d 8 2F 72 82 14 3C 62 91 00  Length = 225892 BitCount = 117 ID = 2016
  36.346334 1  7E0             Rx   d 8 20 00 C5 D9 CC 14 70 40  Length = 231891 BitCount = 120 ID = 2016
  36.346572 1  7E0             Rx   d 8 21 C4 6D 00 79 01 DF 02  Length = 229892 BitCount = 119 ID = 2016
  36.346810 1  7E0             Rx   d 8 22 FD FF C8 0C 39 FF 1C  Length = 229892 BitCount = 119 ID = 2016
  36.347046 1  7E0             Rx   d 8 23 00 39 C3 15 00 5F F3  Length = 227892 BitCount = 118 ID = 2016
  36.347285 1  7E0             Rx   d 8 24 0C 80 91 00 00 25 D9  Length = 229892 BitCount = 119 ID = 2016
  36.347519 1  7E0             Rx   d 8 25 22 3C 60 59 22 18 00  Length = 225891 BitCount = 117 ID = 2016
  36.347761 1  7E0             Rx   d 8 26 0D 00 80 04 82 48 3C  Length = 233883 BitCount = 121 ID = 2016
  36.347997 1  7E0             Rx   d 8 27 4C 82 1F E9 CF 14 00  Length = 227891 BitCount = 118 ID = 2016
  36.348233 1  7E0             Rx   d 8 28 6D 00 20 13 C8 02 74  Length = 227892 BitCount = 118 ID = 2016
  36.348468 1  7E0             Rx   d 8 29 C2 39 2F 15 00 C2 1F  Length = 225891 BitCount = 117 ID = 2016
  36.348700 1  7E0             Rx   d 8 2A E9 2F 15 00 C8 82 BD  Length = 223891 BitCount = 116 ID = 2016
  36.348938 1  7E0             Rx   d 8 2B 02 1A 00 4C 22 91 00  Length = 229892 BitCount = 119 ID = 2016
  36.349174 1  7E0             Rx   d 8 2C 00 37 D9 33 C0 87 90  Length = 227891 BitCount = 118 ID = 2016
  36.349414 1  7E0             Rx   d 8 2D 32 99 22 04 00 EC 20  Length = 231892 BitCount = 120 ID = 2016
  36.349647 1  7E0             Rx   d 8 2E C8 82 4C 22 19 24 04  Length = 223892 BitCount = 116 ID = 2016
  36.349885 1  7E0             Rx   d 8 2F 00 C2 1F 06 2F 10 34  Length = 229891 BitCount = 119 ID = 2016
  36.350123 1  7E0             Rx   d 8 20 54 43 1B 43 00 20 5F  Length = 229891 BitCount = 119 ID = 2016
  36.350357 1  7E0             Rx   d 8 21 43 03 80 54 22 10 33  Length = 225883 BitCount = 117 ID = 2016
  36.350595 1  7E0             Rx   d 8 22 74 32 91 00 00 25 D9  Length = 229891 BitCount = 119 ID = 2016
  36.350830 1  7E0             Rx   d 8 23 22 3C 60 4C 27 48 22  Length = 225892 BitCount = 117 ID = 2016
  36.351064 1  7E0             Rx   d 8 24 A6 2F 6C 27 82 0F 19  Length = 225891 BitCount = 117 ID = 2016
  36.351302 1  7E0             Rx   d 8 25 2A 1C 00 19 2B 28 00  Length = 229891 BitCount = 119 ID = 2016
  36.351542 1  7E0             Rx   d 8 26 6C 26 0D 00 80 04 40  Length = 231892 BitCount = 120 ID = 2016
  36.351779 1  7E0             Rx   d 8 27 F4 6D 00 1E 16 B9 DF  Length = 227892 BitCount = 118 ID = 2016
  36.352019 1  7E0             Rx   d 8 28 10 00 5E 2A 02 9F 16  Length = 231883 BitCount = 120 ID = 2016
  36.352259 1  7E0             Rx   d 8 29 FF 82 08 EE 15 7F AB  Length = 231892 BitCount = 120 ID = 2016
  36.352495 1  7E0             Rx   d 8 2A 14 80 6D FF AA FA 3C  Length = 227891 BitCount = 118 ID = 2016
  36.352735 1  7E0             Rx   d 8 2B 10 82 24 6D FF 03 FC  Length = 231892 BitCount = 120 ID = 2016
  36.352978 1  7E0             Rx   d 8 2C 3C 0B 82 38 82 0F 02  Length = 233892 BitCount = 121 ID = 2016
  36.353214 1  7E0             Rx   d 8 2D 84 82 15 80 F6 82 07  Length = 227891 BitCount = 118 ID = 2016
  36.355190 1  7E0             Rx   d 8 2E 78 00 6D FF 58 FE 3C  Length = 227891 BitCount = 118 ID = 2016
  36.355430 1  7E0             Rx   d 8 2F 02 82 08 CD C9 E2 0F  Length = 231892 BitCount = 120 ID = 2016
  36.355674 1  7E0             Rx   d 8 20 0D 00 C0 04 02 82 00  Length = 235891 BitCount = 122 ID = 2016
  36.355911 1  7E0             Rx   d 8 21 90 06 E5 1B F5 FF 5F  Length = 227883 BitCount = 118 ID = 2016
  36.356147 1  7E0             Rx   d 8 22 60 56 40 57 40 4F 8F  Length = 227892 BitCount = 118 ID = 2016
  36.356391 1  7E0             Rx   d 8 23 14 00 F0 60 F3 30 3F  Length = 235891 BitCount = 122 ID = 2016
  36.356631 1  7E0             Rx   d 8 24 8F 16 00 F0 60 F3 01  Length = 231892 BitCount = 120 ID = 2016
  36.356873 1  7E0             Rx   d 8 25 3F 10 20 09 20 48 01  Length = 233892 BitCount = 121 ID = 2016
  36.357114 1  7E0             Rx   d 8 26 09 F8 48 01 0B 80 A0  Length = 231891 BitCount = 120 ID = 2016
  36.357346 1  7E0             Rx   d 8 27 26 0B 91 A0 36 64 72  Length = 223892 BitCount = 116 ID = 2016
  36.357584 1  7E0             Rx   d 8 28 64 73 FC 66 00 90 1B  Length = 229883 BitCount = 119 ID = 2016
  36.357820 1  7E0             Rx   d 8 29 E5 FF 5F 60 53 1B F6  Length = 227891 BitCount = 118 ID = 2016
  36.358059 1  7E0             Rx   d 8 2A FF 6F 60 66 02 70 53  Length = 229892 BitCount = 119 ID = 2016
  36.358303 1  7E0             Rx   d 8 2B F0 3F 00 40 57 40 7F  Length = 235891 BitCount = 122 ID = 2016
  36.358541 1  7E0             Rx   d 8 2C 40 42 8F 14 00 20 60  Length = 229892 BitCount = 119 ID = 2016
  36.358775 1  7E0             Rx   d 8 2D 24 30 42 C6 22 84 2F  Length = 225891 BitCount = 117 ID = 2016
  36.359013 1  7E0             Rx   d 8 2E 22 F2 FC 6E 0F 02 20  Length = 229892 BitCount = 119 ID = 2016
  36.359250 1  7E0             Rx   d 8 2F 30 A4 73 09 FF 82 04  Length = 227892 BitCount = 118 ID = 2016
  36.359488 1  7E0             Rx   d 8 20 22 F2 0F 02 20 30 A4  Length = 229892 BitCount = 119 ID = 2016
  36.359726 1  7E0             Rx   d 8 21 73 FC 3A 00 90 40 5F  Length = 229892 BitCount = 119 ID = 2016
  36.359962 1  7E0             Rx   d 8 22 B0 25 0B 65 10 88 02  Length = 227891 BitCount = 118 ID = 2016
  36.360200 1  7E0             Rx   d 8 23 4A 02 7F 40 4C 6D FF  Length = 229883 BitCount = 119 ID = 2016
  36.360443 1  7E0             Rx   d 8 24 BF FF 0B A9 10 48 0B  Length = 233891 BitCount = 121 ID = 2016
  36.360677 1  7E0             Rx   d 8 25 8F 10 68 40 C4 40 F5  Length = 225892 BitCount = 117 ID = 2016
  36.360917 1  7E0             Rx   d 8 26 1D FF D2 FF DF 06 12  Length = 231891 BitCount = 120 ID = 2016
  36.361151 1  7E0             Rx   d 8 27 00 73 54 6A 00 8B 06  Length = 225891 BitCount = 117 ID = 2016
  36.361387 1  7E0             Rx   d 8 28 02 F1 17 01 80 2F 8B  Length = 227892 BitCount = 118 ID = 2016
  36.361622 1  7E0             Rx   d 8 29 16 00 61 0F 61 10 10  Length = 225883 BitCount = 117 ID = 2016
  36.361862 1  7E0             Rx   d 8 2A 0F 01 D0 F1 3B F0 01  Length = 231892 BitCount = 120 ID = 2016
  36.362104 1  7E0             Rx   d 8 2B 60 7F 6F 04 00 73 54  Length = 233891 BitCount = 121 ID = 2016
  36.362336 1  7E0             Rx   d 8 2C 8A 20 32 22 37 02 50  Length = 223892 BitCount = 116 ID = 2016
  36.362575 1  7E0             Rx   d 8 2D 20 00 90 DF 06 12 00  Length = 229892 BitCount = 119 ID = 2016
  36.362809 1  7E0             Rx   d 8 2E 73 54 6A 00 8B 06 02  Length = 225891 BitCount = 117 ID = 2016
  36.363045 1  7E0             Rx   d 8 2F F1 17 01 80 2F 8B 16  Length = 227892 BitCount = 118 ID = 2016
  36.363283 1  7E0             Rx   d 8 20 00 61 0F 61 10 10 0F  Length = 229891 BitCount = 119 ID = 2016
  36.363523 1  7E0             Rx   d 8 21 01 D0 F1 3B F0 01 60  Length = 231891 BitCount = 120 ID = 2016
  36.363760 1  7E0             Rx   d 8 22 7F 6F 04 00 73 54 8A  Length = 227892 BitCount = 118 ID = 2016
  36.363998 1  7E0             Rx   d 8 23 20 00 90 B9 4F FE FF  Length = 229891 BitCount = 119 ID = 2016
  36.364230 1  7E0             Rx   d 8 24 40 4F 6E 03 5E 1A 3C  Length = 223891 BitCount = 116 ID = 2016
  36.364464 1  7E0             Rx   d 8 25 07 84 45 32 24 9A 15  Length = 225892 BitCount = 117 ID = 2016
  36.364696 1  7E0             Rx   d 8 26 50 F5 1D 00 7F 15 9D  Length = 223891 BitCount = 116 ID = 2016
  36.364937 1  7E0             Rx   d 8 27 8A DF 05 82 02 00 90  Length = 231892 BitCount = 120 ID = 2016
  36.365173 1  7E0             Rx   d 8 28 B9 4F FE FF 0B 54 10  Length = 227892 BitCount = 118 ID = 2016
  36.365405 1  7E0             Rx   d 8 29 28 40 4F 6E 03 DE 16  Length = 223891 BitCount = 116 ID = 2016
  36.365643 1  7E0             Rx   d 8 2A 3C 13 79 46 00 00 79  Length = 229892 BitCount = 119 ID = 2016
  36.365885 1  7E0             Rx   d 8 2B 47 01 00 1B 16 00 00  Length = 233883 BitCount = 121 ID = 2016
  36.366126 1  7E0             Rx   d 8 2C 1A 76 C2 1F 01 F0 01  Length = 231891 BitCount = 120 ID = 2016
  36.366362 1  7E0             Rx   d 8 2D 56 50 F6 0B 03 E0 47  Length = 227892 BitCount = 118 ID = 2016
  36.366600 1  7E0             Rx   d 8 2E 0B 02 E0 57 B0 24 1D  Length = 229891 BitCount = 119 ID = 2016
  36.366836 1  7E0             Rx   d 8 2F 00 67 15 9D 8A E8 05  Length = 227904 BitCount = 118 ID = 2016
  36.367076 1  7E0             Rx   d 8 20 82 02 00 90 0C 40 39  Length = 231891 BitCount = 120 ID = 2016
  36.367317 1  7E0             Rx   d 8 21 48 01 00 D9 42 02 00  Length = 231892 BitCount = 120 ID = 2016
  36.367553 1  7E0             Rx   d 8 22 12 82 C2 12 50 2C 01  Length = 227892 BitCount = 118 ID = 2016
  36.367791 1  7E0             Rx   d 8 23 42 01 F6 02 59 40 24  Length = 229892 BitCount = 119 ID = 2016
  36.368027 1  7E0             Rx   d 8 24 02 F5 ED 8A F8 05 0B  Length = 227892 BitCount = 118 ID = 2016
  36.368266 1  7E0             Rx   d 8 25 98 10 48 40 C4 02 2F  Length = 229904 BitCount = 119 ID = 2016
  36.368500 1  7E0             Rx   d 8 26 ED 8A F8 05 0B F2 10  Length = 225883 BitCount = 117 ID = 2016
  36.368734 1  7E0             Rx   d 8 27 48 02 86 40 F4 9D 8A  Length = 225891 BitCount = 117 ID = 2016
  36.368970 1  7E0             Rx   d 8 28 9B 06 B9 4F FE FF 6E  Length = 227892 BitCount = 118 ID = 2016
  36.369206 1  7E0             Rx   d 8 29 03 5E 16 3C 03 1D FF  Length = 227891 BitCount = 118 ID = 2016
  36.369445 1  7E0             Rx   d 8 2A E0 FF 9D 8A E8 05 82  Length = 229891 BitCount = 119 ID = 2016
  36.369685 1  7E0             Rx   d 8 2B 02 00 90 02 62 7F 54  Length = 231892 BitCount = 120 ID = 2016
  36.369925 1  7E0             Rx   d 8 2C 0C 80 8B F4 0F 41 02  Length = 231883 BitCount = 120 ID = 2016
  36.370161 1  7E0             Rx   d 8 2D 72 7F 45 07 80 A2 62  Length = 227892 BitCount = 118 ID = 2016
  36.370395 1  7E0             Rx   d 8 2E E2 25 86 85 0B 56 00  Length = 225891 BitCount = 117 ID = 2016
  36.370634 1  7E0             Rx   d 8 2F 20 00 90 0C 40 3E 4D  Length = 229892 BitCount = 119 ID = 2016
  36.370870 1  7E0             Rx   d 8 20 19 42 04 00 76 43 8C  Length = 227892 BitCount = 118 ID = 2016
  36.371104 1  7E0             Rx   d 8 21 51 3C 02 8C 50 3B 00  Length = 225891 BitCount = 117 ID = 2016
  36.371340 1  7E0             Rx   d 8 22 71 32 E2 3F 3F F2 06  Length = 227892 BitCount = 118 ID = 2016
  36.371580 1  7E0             Rx   d 8 23 00 34 44 82 0F 6C 41  Length = 231883 BitCount = 120 ID = 2016
  36.371813 1  7E0             Rx   d 8 24 3C 04 42 25 59 45 04  Length = 223891 BitCount = 116 ID = 2016
  36.372051 1  7E0             Rx   d 8 25 00 14 42 00 90 73 56  Length = 229892 BitCount = 119 ID = 2016
  36.372289 1  7E0             Rx   d 8 26 6A 60 02 43 40 4F 8F  Length = 229891 BitCount = 119 ID = 2016
  36.372529 1  7E0             Rx   d 8 27 07 1F 20 82 FF F6 24  Length = 231891 BitCount = 120 ID = 2016
  36.372762 1  7E0             Rx   d 8 28 77 67 00 68 02 6F 0B  Length = 223891 BitCount = 116 ID = 2016
  36.372998 1  7E0             Rx   d 8 29 F3 10 48 48 08 6D 00  Length = 227892 BitCount = 118 ID = 2016
  36.373238 1  7E0             Rx   d 8 2A 0F 15 22 82 7B 10 00  Length = 231892 BitCount = 120 ID = 2016
  36.373476 1  7E0             Rx   d 8 2B F0 68 02 4B F2 01 22  Length = 229892 BitCount = 119 ID = 2016
  36.373714 1  7E0             Rx   d 8 2C 37 02 50 20 00 90 82  Length = 229892 BitCount = 119 ID = 2016
  36.373947 1  7E0             Rx   d 8 2D 12 49 42 00 08 F6 22  Length = 223891 BitCount = 116 ID = 2016
  36.375401 1  7E0             Rx   d 8 2E 00 90 00 00 00 00 00  Length = 239891 BitCount = 124 ID = 2016
  36.375651 1  7E0             Rx   d 8 2F 00 00 00 00 00 00 00  Length = 241892 BitCount = 125 ID = 2016
  36.375903 1  7E0             Rx   d 8 20 00 00 00 00 00 00 00  Length = 243904 BitCount = 126 ID = 2016
  36.376155 1  7E0             Rx   d 8 21 00 00 00 00 00 00 00  Length = 243891 BitCount = 126 ID = 2016
  36.376408 1  7E0             Rx   d 8 22 00 00 00 00 00 00 00  Length = 243892 BitCount = 126 ID = 2016
  36.376646 1  7E0             Rx   d 8 23 90 82 02 00 90 4C 40  Length = 229892 BitCount = 119 ID = 2016
  36.376882 1  7E0             Rx   d 8 24 CC 41 42 F5 8B 06 00  Length = 227892 BitCount = 118 ID = 2016
  36.377120 1  7E0             Rx   d 8 25 F1 3C 0A 89 F4 BE F0  Length = 229892 BitCount = 119 ID = 2016
  36.377360 1  7E0             Rx   d 8 26 19 42 08 00 80 F3 7F  Length = 231892 BitCount = 120 ID = 2016
  36.377593 1  7E0             Rx   d 8 27 23 03 80 CC 43 42 F5  Length = 223891 BitCount = 116 ID = 2016
  36.377833 1  7E0             Rx   d 8 28 3F 56 F7 7F EC 41 74  Length = 231892 BitCount = 120 ID = 2016
  36.378069 1  7E0             Rx   d 8 29 45 88 02 00 90 73 56  Length = 227891 BitCount = 118 ID = 2016
