date Mon Jul 20 12:02:14 pm 2026
base hex  timestamps absolute
internal events logged
// version 8.0.0
  16.055845 1  7E0             Rx   d 8 02 3E 00 00 00 00 00 00  Length = 0 BitCount = 125 ID = 2016
  16.063609 1  7E8             Rx   d 8 02 7E 00 00 00 00 00 00  Length = 0 BitCount = 125 ID = 2024
  19.315841 1  743             Rx   d 8 02 3E 00 00 00 00 00 00  Length = 0 BitCount = 123 ID = 1859
  24.664622 1  ErrorFrame	Flags = 0xfffe	CodeExt = 0x20aa	Code = 0x82	ID = 0x7e2	DLC = 4	Position = 32	Length = 67375	Data = 0x29  0  0  0
  24.664727 1  ErrorFrame	Flags = 0xfffe	CodeExt = 0x20aa	Code = 0x82	ID = 0x7e2	DLC = 4	Position = 32	Length = 67375	Data = 0x29  0  0  0
  24.664831 1  ErrorFrame	Flags = 0xfffe	CodeExt = 0x20aa	Code = 0x82	ID = 0x7e2	DLC = 4	Position = 32	Length = 67362	Data = 0x29  0  0  0
  24.664936 1  ErrorFrame	Flags = 0xfffe	CodeExt = 0x20aa	Code = 0x82	ID = 0x7e2	DLC = 4	Position = 32	Length = 67362	Data = 0x29  0  0  0
  24.665040 1  ErrorFrame	Flags = 0xfffe	CodeExt = 0x20aa	Code = 0x82	ID = 0x7e2	DLC = 4	Position = 32	Length = 67388	Data = 0x29  0  0  0
  24.665145 1  ErrorFrame	Flags = 0xfffe	CodeExt = 0x20aa	Code = 0x82	ID = 0x7e2	DLC = 4	Position = 32	Length = 67362	Data = 0x29  0  0  0
  24.665249 1  ErrorFrame	Flags = 0xfffe	CodeExt = 0x20aa	Code = 0x82	ID = 0x7e2	DLC = 4	Position = 32	Length = 67388	Data = 0x29  0  0  0
  24.665354 1  ErrorFrame	Flags = 0xfffe	CodeExt = 0x20aa	Code = 0x82	ID = 0x7e2	DLC = 4	Position = 32	Length = 67362	Data = 0x29  0  0  0
  24.665458 1  ErrorFrame	Flags = 0xfffe	CodeExt = 0x20aa	Code = 0x82	ID = 0x7e2	DLC = 4	Position = 32	Length = 67388	Data = 0x29  0  0  0
  24.665563 1  ErrorFrame	Flags = 0xfffe	CodeExt = 0x20aa	Code = 0x82	ID = 0x7e2	DLC = 4	Position = 32	Length = 67375	Data = 0x29  0  0  0
  24.665667 1  ErrorFrame	Flags = 0xfffe	CodeExt = 0x20aa	Code = 0x82	ID = 0x7e2	DLC = 4	Position = 32	Length = 67362	Data = 0x29  0  0  0
  24.665772 1  ErrorFrame	Flags = 0xfffe	CodeExt = 0x20aa	Code = 0x82	ID = 0x7e2	DLC = 4	Position = 32	Length = 67375	Data = 0x29  0  0  0
  24.665876 1  ErrorFrame	Flags = 0xfffe	CodeExt = 0x20aa	Code = 0x82	ID = 0x7e2	DLC = 4	Position = 32	Length = 67362	Data = 0x29  0  0  0
  24.665981 1  ErrorFrame	Flags = 0xfffe	CodeExt = 0x20aa	Code = 0x82	ID = 0x7e2	DLC = 4	Position = 32	Length = 67375	Data = 0x29  0  0  0
  24.666085 1  ErrorFrame	Flags = 0xfffe	CodeExt = 0x20aa	Code = 0x82	ID = 0x7e2	DLC = 4	Position = 32	Length = 67362	Data = 0x29  0  0  0
  24.666190 1  ErrorFrame	Flags = 0xfffe	CodeExt = 0x20aa	Code = 0x82	ID = 0x7e2	DLC = 4	Position = 32	Length = 67375	Data = 0x29  0  0  0
  37.911782 1  7E0             Rx   d 8 02 10 03 00 00 00 00 00  Length = 0 BitCount = 125 ID = 2016
  37.924114 1  7E8             Rx   d 8 06 50 03 00 32 01 EA 00  Length = 0 BitCount = 121 ID = 2024
  37.938773 1  7E0             Rx   d 8 02 27 01 00 00 00 00 00  Length = 0 BitCount = 123 ID = 2016
  37.943601 1  7E8             Rx   d 8 06 67 01 6D A7 4C D8 00  Length = 0 BitCount = 117 ID = 2024
  37.955761 1  7E0             Rx   d 8 06 27 02 28 64 35 6C 00  Length = 0 BitCount = 118 ID = 2016
  37.963649 1  7E8             Rx   d 8 02 67 02 00 00 00 00 00  Length = 0 BitCount = 123 ID = 2024
  37.974782 1  7E0             Rx   d 8 03 22 F1 81 00 00 00 00  Length = 0 BitCount = 121 ID = 2016
  37.985548 1  7E8             Rx   d 8 10 1B 62 F1 81 4D 44 31  Length = 0 BitCount = 116 ID = 2024
  37.987832 1  7E0             Rx   d 8 30 00 00 00 00 00 00 00  Length = 0 BitCount = 126 ID = 2016
  37.994498 1  7E8             Rx   d 8 21 43 53 30 32 38 5F 50  Length = 0 BitCount = 116 ID = 2024
  37.996512 1  7E8             Rx   d 8 22 32 38 37 32 5F 34 53  Length = 0 BitCount = 116 ID = 2024
  37.998744 1  7E8             Rx   d 8 23 43 52 5F 43 53 30 31  Length = 0 BitCount = 116 ID = 2024
  38.009789 1  7E0             Rx   d 8 03 22 F1 82 00 00 00 00  Length = 0 BitCount = 121 ID = 2016
  38.024085 1  7E8             Rx   d 8 10 13 62 F1 82 41 31 32  Length = 0 BitCount = 117 ID = 2024
  38.026831 1  7E0             Rx   d 8 30 00 00 00 00 00 00 00  Length = 0 BitCount = 126 ID = 2016
  38.028499 1  7E8             Rx   d 8 21 33 34 35 36 37 38 39  Length = 0 BitCount = 115 ID = 2024
  38.034997 1  7E8             Rx   d 8 22 20 20 20 20 20 20 00  Length = 0 BitCount = 121 ID = 2024
  38.053807 1  7E0             Rx   d 8 03 22 F1 80 00 00 00 00  Length = 0 BitCount = 122 ID = 2016
  38.063635 1  7E8             Rx   d 8 10 35 62 F1 80 50 56 45  Length = 0 BitCount = 118 ID = 2024
  38.066812 1  7E0             Rx   d 8 30 00 00 00 00 00 00 00  Length = 0 BitCount = 126 ID = 2016
  38.068662 1  7E8             Rx   d 8 21 52 3A 43 42 5F 49 46  Length = 0 BitCount = 116 ID = 2024
  38.074746 1  7E8             Rx   d 8 22 58 34 50 5F 53 4D 47  Length = 0 BitCount = 117 ID = 2024
  38.076532 1  7E8             Rx   d 8 23 52 5F 30 30 30 5F 33  Length = 0 BitCount = 120 ID = 2024
  38.078512 1  7E8             Rx   d 8 24 2E 31 39 2E 30 31 5F  Length = 0 BitCount = 116 ID = 2024
  38.085076 1  7E8             Rx   d 8 25 4D 44 31 43 53 30 32  Length = 0 BitCount = 116 ID = 2024
  38.086526 1  7E8             Rx   d 8 26 38 3B 30 20 20 20 20  Length = 0 BitCount = 120 ID = 2024
  38.088528 1  7E8             Rx   d 8 27 20 20 20 20 20 00 00  Length = 0 BitCount = 123 ID = 2024
  73.669694 1  7DF             Rx   d 8 02 10 83 00 00 00 00 00  Length = 0 BitCount = 124 ID = 2015
  73.683695 1  7DF             Rx   d 8 02 85 82 00 00 00 00 00  Length = 0 BitCount = 124 ID = 2015
  73.723600 1  7EC             Rx   d 8 03 7F 85 78 00 00 00 00  Length = 0 BitCount = 122 ID = 2028
  73.743606 1  7EC             Rx   d 8 02 C5 02 00 00 00 00 00  Length = 0 BitCount = 123 ID = 2028
  74.706695 1  7DF             Rx   d 8 03 28 83 01 00 00 00 00  Length = 0 BitCount = 122 ID = 2015
  75.757693 1  7E0             Rx   d 8 02 27 05 00 00 00 00 00  Length = 0 BitCount = 123 ID = 2016
  75.759811 1  7E8             Rx   d 8 10 0A 67 05 C7 9F E6 F4  Length = 0 BitCount = 118 ID = 2024
  75.762679 1  7E0             Rx   d 8 30 00 00 00 00 00 00 00  Length = 0 BitCount = 126 ID = 2016
  75.763823 1  7E8             Rx   d 8 21 C7 1B 86 D0 00 00 00  Length = 0 BitCount = 121 ID = 2024
  75.799750 1  7E0             Rx   d 8 10 0A 27 06 A0 A2 61 55  Length = 0 BitCount = 118 ID = 2016
  75.801826 1  7E8             Rx   d 8 30 00 00 00 00 00 00 00  Length = 0 BitCount = 127 ID = 2024
  75.806728 1  7E0             Rx   d 8 21 5D 15 70 5F 00 00 00  Length = 0 BitCount = 121 ID = 2016
  75.809832 1  7E8             Rx   d 8 02 67 06 00 00 00 00 00  Length = 0 BitCount = 123 ID = 2024
  75.827694 1  7E0             Rx   d 8 02 10 02 00 00 00 00 00  Length = 0 BitCount = 124 ID = 2016
  75.859838 1  7E8             Rx   d 8 03 7F 10 78 00 00 00 00  Length = 0 BitCount = 125 ID = 2024
  75.915707 1  7E8             Rx   d 8 06 50 02 00 32 01 EA 00  Length = 0 BitCount = 120 ID = 2024
  75.928665 1  7E0             Rx   d 8 05 31 01 02 00 01 00 00  Length = 0 BitCount = 122 ID = 2016
  75.931731 1  7E8             Rx   d 8 04 71 01 02 00 00 00 00  Length = 0 BitCount = 123 ID = 2024
  75.957658 1  7E0             Rx   d 8 10 1D 31 01 02 01 1C 1C  Length = 0 BitCount = 119 ID = 2016
  75.958566 1  7E8             Rx   d 3 30 00 00  Length = 0 BitCount = 77 ID = 2024
  75.961660 1  7E0             Rx   d 8 21 1C 1C 1C 1C 1C 1C 1C  Length = 0 BitCount = 121 ID = 2016
  75.961900 1  7E0             Rx   d 8 22 1C 1C 1C 1C 1C 1C 1C  Length = 0 BitCount = 120 ID = 2016
  75.962141 1  7E0             Rx   d 8 23 1C 1C 1C 1C 1C 1C 1C  Length = 0 BitCount = 120 ID = 2016
  75.962389 1  7E0             Rx   d 8 24 1C 1C 00 00 00 00 00  Length = 0 BitCount = 124 ID = 2016
  75.971759 1  7E8             Rx   d 8 04 71 01 02 01 00 00 00  Length = 0 BitCount = 123 ID = 2024
  75.988931 1  7DF             Rx   d 8 02 3E 80 00 00 00 00 00  Length = 0 BitCount = 124 ID = 2015
  76.063682 1  7E0             Rx   d 8 05 31 01 FF 00 04 00 00  Length = 0 BitCount = 121 ID = 2016
  76.100185 1  7E8             Rx   d 8 03 7F 31 78 00 00 00 00  Length = 0 BitCount = 123 ID = 2024
  78.989031 1  7DF             Rx   d 8 02 3E 80 00 00 00 00 00  Length = 0 BitCount = 124 ID = 2015
  81.045815 1  7E8             Rx   d 8 03 7F 31 78 00 00 00 00  Length = 0 BitCount = 123 ID = 2024
  81.989134 1  7DF             Rx   d 8 02 3E 80 00 00 00 00 00  Length = 0 BitCount = 124 ID = 2015
  84.989235 1  7DF             Rx   d 8 02 3E 80 00 00 00 00 00  Length = 0 BitCount = 124 ID = 2015
  85.991849 1  7E8             Rx   d 8 03 7F 31 78 00 00 00 00  Length = 0 BitCount = 123 ID = 2024
  87.989339 1  7DF             Rx   d 8 02 3E 80 00 00 00 00 00  Length = 0 BitCount = 124 ID = 2015
  90.937605 1  7E8             Rx   d 8 03 7F 31 78 00 00 00 00  Length = 0 BitCount = 123 ID = 2024
  90.989443 1  7DF             Rx   d 8 02 3E 80 00 00 00 00 00  Length = 0 BitCount = 124 ID = 2015
  93.989551 1  7DF             Rx   d 8 02 3E 80 00 00 00 00 00  Length = 0 BitCount = 124 ID = 2015
  95.883737 1  7E8             Rx   d 8 03 7F 31 78 00 00 00 00  Length = 0 BitCount = 123 ID = 2024
  96.989651 1  7DF             Rx   d 8 02 3E 80 00 00 00 00 00  Length = 0 BitCount = 124 ID = 2015
  99.989752 1  7DF             Rx   d 8 02 3E 80 00 00 00 00 00  Length = 0 BitCount = 124 ID = 2015
 100.829500 1  7E8             Rx   d 8 03 7F 31 78 00 00 00 00  Length = 0 BitCount = 123 ID = 2024
 102.989855 1  7DF             Rx   d 8 02 3E 80 00 00 00 00 00  Length = 0 BitCount = 124 ID = 2015
 105.753802 1  7E8             Rx   d 8 03 7F 31 78 00 00 00 00  Length = 0 BitCount = 123 ID = 2024
 105.989956 1  7DF             Rx   d 8 02 3E 80 00 00 00 00 00  Length = 0 BitCount = 124 ID = 2015
 108.990055 1  7DF             Rx   d 8 02 3E 80 00 00 00 00 00  Length = 0 BitCount = 124 ID = 2015
 110.647379 1  7E8             Rx   d 8 03 7F 31 78 00 00 00 00  Length = 0 BitCount = 123 ID = 2024
 111.990178 1  7DF             Rx   d 8 02 3E 80 00 00 00 00 00  Length = 0 BitCount = 124 ID = 2015
 114.990280 1  7DF             Rx   d 8 02 3E 80 00 00 00 00 00  Length = 0 BitCount = 124 ID = 2015
 115.540811 1  7E8             Rx   d 8 03 7F 31 78 00 00 00 00  Length = 0 BitCount = 123 ID = 2024
 117.990382 1  7DF             Rx   d 8 02 3E 80 00 00 00 00 00  Length = 0 BitCount = 124 ID = 2015
 120.434123 1  7E8             Rx   d 8 03 7F 31 78 00 00 00 00  Length = 0 BitCount = 123 ID = 2024
 120.990481 1  7DF             Rx   d 8 02 3E 80 00 00 00 00 00  Length = 0 BitCount = 124 ID = 2015
 123.990582 1  7DF             Rx   d 8 02 3E 80 00 00 00 00 00  Length = 0 BitCount = 124 ID = 2015
 125.327465 1  7E8             Rx   d 8 03 7F 31 78 00 00 00 00  Length = 0 BitCount = 123 ID = 2024
 126.990680 1  7DF             Rx   d 8 02 3E 80 00 00 00 00 00  Length = 0 BitCount = 124 ID = 2015
 129.990780 1  7DF             Rx   d 8 02 3E 80 00 00 00 00 00  Length = 0 BitCount = 124 ID = 2015
 130.220899 1  7E8             Rx   d 8 03 7F 31 78 00 00 00 00  Length = 0 BitCount = 123 ID = 2024
 132.990900 1  7DF             Rx   d 8 02 3E 80 00 00 00 00 00  Length = 0 BitCount = 124 ID = 2015
 135.113997 1  7E8             Rx   d 8 03 7F 31 78 00 00 00 00  Length = 0 BitCount = 123 ID = 2024
 135.991001 1  7DF             Rx   d 8 02 3E 80 00 00 00 00 00  Length = 0 BitCount = 124 ID = 2015
 138.991099 1  7DF             Rx   d 8 02 3E 80 00 00 00 00 00  Length = 0 BitCount = 124 ID = 2015
 140.007237 1  7E8             Rx   d 8 03 7F 31 78 00 00 00 00  Length = 0 BitCount = 123 ID = 2024
 141.991201 1  7DF             Rx   d 8 02 3E 80 00 00 00 00 00  Length = 0 BitCount = 124 ID = 2015
 144.900716 1  7E8             Rx   d 8 03 7F 31 78 00 00 00 00  Length = 0 BitCount = 123 ID = 2024
 144.991303 1  7DF             Rx   d 8 02 3E 80 00 00 00 00 00  Length = 0 BitCount = 124 ID = 2015
 147.991417 1  7DF             Rx   d 8 02 3E 80 00 00 00 00 00  Length = 0 BitCount = 124 ID = 2015
 149.794199 1  7E8             Rx   d 8 03 7F 31 78 00 00 00 00  Length = 0 BitCount = 123 ID = 2024
 150.991527 1  7DF             Rx   d 8 02 3E 80 00 00 00 00 00  Length = 0 BitCount = 124 ID = 2015
 153.991628 1  7DF             Rx   d 8 02 3E 80 00 00 00 00 00  Length = 0 BitCount = 124 ID = 2015
 154.687551 1  7E8             Rx   d 8 03 7F 31 78 00 00 00 00  Length = 0 BitCount = 123 ID = 2024
 156.991728 1  7DF             Rx   d 8 02 3E 80 00 00 00 00 00  Length = 0 BitCount = 124 ID = 2015
 159.580954 1  7E8             Rx   d 8 03 7F 31 78 00 00 00 00  Length = 0 BitCount = 123 ID = 2024
 159.991839 1  7DF             Rx   d 8 02 3E 80 00 00 00 00 00  Length = 0 BitCount = 124 ID = 2015
 162.991938 1  7DF             Rx   d 8 02 3E 80 00 00 00 00 00  Length = 0 BitCount = 124 ID = 2015
 164.474401 1  7E8             Rx   d 8 03 7F 31 78 00 00 00 00  Length = 0 BitCount = 123 ID = 2024
 165.992041 1  7DF             Rx   d 8 02 3E 80 00 00 00 00 00  Length = 0 BitCount = 124 ID = 2015
 168.992139 1  7DF             Rx   d 8 02 3E 80 00 00 00 00 00  Length = 0 BitCount = 124 ID = 2015
 169.367834 1  7E8             Rx   d 8 03 7F 31 78 00 00 00 00  Length = 0 BitCount = 123 ID = 2024
 171.992243 1  7DF             Rx   d 8 02 3E 80 00 00 00 00 00  Length = 0 BitCount = 124 ID = 2015
 174.261413 1  7E8             Rx   d 8 03 7F 31 78 00 00 00 00  Length = 0 BitCount = 123 ID = 2024
 174.992346 1  7DF             Rx   d 8 02 3E 80 00 00 00 00 00  Length = 0 BitCount = 124 ID = 2015
 177.992446 1  7DF             Rx   d 8 02 3E 80 00 00 00 00 00  Length = 0 BitCount = 124 ID = 2015
 179.154761 1  7E8             Rx   d 8 03 7F 31 78 00 00 00 00  Length = 0 BitCount = 123 ID = 2024
 180.992568 1  7DF             Rx   d 8 02 3E 80 00 00 00 00 00  Length = 0 BitCount = 124 ID = 2015
 183.992671 1  7DF             Rx   d 8 02 3E 80 00 00 00 00 00  Length = 0 BitCount = 124 ID = 2015
 184.070587 1  7E8             Rx   d 8 03 7F 31 78 00 00 00 00  Length = 0 BitCount = 123 ID = 2024
 186.992771 1  7DF             Rx   d 8 02 3E 80 00 00 00 00 00  Length = 0 BitCount = 124 ID = 2015
 189.019022 1  7E8             Rx   d 8 03 7F 31 78 00 00 00 00  Length = 0 BitCount = 123 ID = 2024
 189.992869 1  7DF             Rx   d 8 02 3E 80 00 00 00 00 00  Length = 0 BitCount = 124 ID = 2015
 192.992977 1  7DF             Rx   d 8 02 3E 80 00 00 00 00 00  Length = 0 BitCount = 124 ID = 2015
 193.967634 1  7E8             Rx   d 8 03 7F 31 78 00 00 00 00  Length = 0 BitCount = 123 ID = 2024
 195.993075 1  7DF             Rx   d 8 02 3E 80 00 00 00 00 00  Length = 0 BitCount = 124 ID = 2015
 198.864352 1  7E8             Rx   d 8 03 7F 31 78 00 00 00 00  Length = 0 BitCount = 123 ID = 2024
 198.993175 1  7DF             Rx   d 8 02 3E 80 00 00 00 00 00  Length = 0 BitCount = 124 ID = 2015
 201.993281 1  7DF             Rx   d 8 02 3E 80 00 00 00 00 00  Length = 0 BitCount = 124 ID = 2015
 203.757085 1  7E8             Rx   d 8 03 7F 31 78 00 00 00 00  Length = 0 BitCount = 123 ID = 2024
 204.993384 1  7DF             Rx   d 8 02 3E 80 00 00 00 00 00  Length = 0 BitCount = 124 ID = 2015
 207.993498 1  7DF             Rx   d 8 02 3E 80 00 00 00 00 00  Length = 0 BitCount = 124 ID = 2015
 208.654231 1  7E8             Rx   d 8 03 7F 31 78 00 00 00 00  Length = 0 BitCount = 123 ID = 2024
 210.993600 1  7DF             Rx   d 8 02 3E 80 00 00 00 00 00  Length = 0 BitCount = 124 ID = 2015
 213.551332 1  7E8             Rx   d 8 03 7F 31 78 00 00 00 00  Length = 0 BitCount = 123 ID = 2024
 213.993701 1  7DF             Rx   d 8 02 3E 80 00 00 00 00 00  Length = 0 BitCount = 124 ID = 2015
 216.993822 1  7DF             Rx   d 8 02 3E 80 00 00 00 00 00  Length = 0 BitCount = 124 ID = 2015
 218.448621 1  7E8             Rx   d 8 03 7F 31 78 00 00 00 00  Length = 0 BitCount = 123 ID = 2024
 219.993920 1  7DF             Rx   d 8 02 3E 80 00 00 00 00 00  Length = 0 BitCount = 124 ID = 2015
 222.994017 1  7DF             Rx   d 8 02 3E 80 00 00 00 00 00  Length = 0 BitCount = 124 ID = 2015
 223.345885 1  7E8             Rx   d 8 03 7F 31 78 00 00 00 00  Length = 0 BitCount = 123 ID = 2024
 225.994117 1  7DF             Rx   d 8 02 3E 80 00 00 00 00 00  Length = 0 BitCount = 124 ID = 2015
 228.243194 1  7E8             Rx   d 8 03 7F 31 78 00 00 00 00  Length = 0 BitCount = 123 ID = 2024
 228.994220 1  7DF             Rx   d 8 02 3E 80 00 00 00 00 00  Length = 0 BitCount = 124 ID = 2015
 231.994323 1  7DF             Rx   d 8 02 3E 80 00 00 00 00 00  Length = 0 BitCount = 124 ID = 2015
 233.134969 1  7E8             Rx   d 8 03 7F 31 78 00 00 00 00  Length = 0 BitCount = 123 ID = 2024
 234.994422 1  7DF             Rx   d 8 02 3E 80 00 00 00 00 00  Length = 0 BitCount = 124 ID = 2015
 237.982374 1  7E8             Rx   d 8 04 71 01 FF 00 00 00 00  Length = 0 BitCount = 122 ID = 2024
 237.994522 1  7DF             Rx   d 8 02 3E 80 00 00 00 00 00  Length = 0 BitCount = 124 ID = 2015
 238.007322 1  7E0             Rx   d 8 10 0B 34 00 44 80 0A 00  Length = 0 BitCount = 122 ID = 2016
 238.008212 1  7E8             Rx   d 3 30 00 00  Length = 0 BitCount = 77 ID = 2024
 238.011255 1  7E0             Rx   d 8 21 00 00 67 00 00 00 00  Length = 0 BitCount = 123 ID = 2016
 238.014397 1  7E8             Rx   d 8 04 74 20 0F FF 00 00 00  Length = 0 BitCount = 121 ID = 2024
 238.147314 1  7E0             Rx   d 8 1F FF 36 01 EF BE AD DE  Length = 0 BitCount = 119 ID = 2016
 238.148328 1  7E8             Rx   d 3 30 00 00  Length = 0 BitCount = 77 ID = 2024
 238.151256 1  7E0             Rx   d 8 21 00 00 00 00 00 00 00  Length = 0 BitCount = 126 ID = 2016
 238.151508 1  7E0             Rx   d 8 22 00 00 00 00 00 00 00  Length = 0 BitCount = 126 ID = 2016
 238.151761 1  7E0             Rx   d 8 23 00 00 00 00 00 00 00  Length = 0 BitCount = 126 ID = 2016
 238.152011 1  7E0             Rx   d 8 24 00 00 00 00 00 00 00  Length = 0 BitCount = 125 ID = 2016
 238.152261 1  7E0             Rx   d 8 25 00 00 00 00 00 00 00  Length = 0 BitCount = 125 ID = 2016
 238.152513 1  7E0             Rx   d 8 26 00 00 00 00 00 00 00  Length = 0 BitCount = 126 ID = 2016
 238.152765 1  7E0             Rx   d 8 27 00 00 00 00 00 00 00  Length = 0 BitCount = 126 ID = 2016
 238.153016 1  7E0             Rx   d 8 28 00 00 00 00 00 00 00  Length = 0 BitCount = 125 ID = 2016
 238.153266 1  7E0             Rx   d 8 29 00 00 00 00 00 00 00  Length = 0 BitCount = 125 ID = 2016
 238.153516 1  7E0             Rx   d 8 2A 00 00 00 00 00 00 00  Length = 0 BitCount = 125 ID = 2016
 238.153766 1  7E0             Rx   d 8 2B 00 00 00 00 00 00 00  Length = 0 BitCount = 125 ID = 2016
 238.154016 1  7E0             Rx   d 8 2C 00 00 00 00 00 00 00  Length = 0 BitCount = 125 ID = 2016
 238.154271 1  7E0             Rx   d 8 2D 00 00 00 00 00 00 00  Length = 0 BitCount = 127 ID = 2016
 238.154521 1  7E0             Rx   d 8 2E 00 00 00 00 00 00 00  Length = 0 BitCount = 125 ID = 2016
 238.154771 1  7E0             Rx   d 8 2F 00 00 00 00 00 00 00  Length = 0 BitCount = 125 ID = 2016
 238.155023 1  7E0             Rx   d 8 20 00 00 00 00 00 00 00  Length = 0 BitCount = 126 ID = 2016
 238.155275 1  7E0             Rx   d 8 21 00 00 00 00 00 00 00  Length = 0 BitCount = 126 ID = 2016
 238.155528 1  7E0             Rx   d 8 22 00 00 00 00 00 00 00  Length = 0 BitCount = 126 ID = 2016
 238.155780 1  7E0             Rx   d 8 23 00 00 00 00 00 00 00  Length = 0 BitCount = 126 ID = 2016
 238.156030 1  7E0             Rx   d 8 24 00 00 00 00 00 00 00  Length = 0 BitCount = 125 ID = 2016
 238.156280 1  7E0             Rx   d 8 25 00 00 00 00 00 00 00  Length = 0 BitCount = 125 ID = 2016
 238.156532 1  7E0             Rx   d 8 26 00 00 00 00 00 00 00  Length = 0 BitCount = 126 ID = 2016
 238.156785 1  7E0             Rx   d 8 27 00 00 00 00 00 00 00  Length = 0 BitCount = 126 ID = 2016
 238.157035 1  7E0             Rx   d 8 28 00 00 00 00 00 00 00  Length = 0 BitCount = 125 ID = 2016
 238.157285 1  7E0             Rx   d 8 29 00 00 00 00 00 00 00  Length = 0 BitCount = 125 ID = 2016
 238.157535 1  7E0             Rx   d 8 2A 00 00 00 00 00 00 00  Length = 0 BitCount = 125 ID = 2016
 238.157785 1  7E0             Rx   d 8 2B 00 00 00 00 00 00 00  Length = 0 BitCount = 125 ID = 2016
 238.158036 1  7E0             Rx   d 8 2C 00 00 00 00 00 00 00  Length = 0 BitCount = 125 ID = 2016
 238.158290 1  7E0             Rx   d 8 2D 00 00 00 00 00 00 00  Length = 0 BitCount = 127 ID = 2016
 238.158540 1  7E0             Rx   d 8 2E 00 00 00 00 00 00 00  Length = 0 BitCount = 125 ID = 2016
 238.158790 1  7E0             Rx   d 8 2F 00 00 00 00 00 00 00  Length = 0 BitCount = 125 ID = 2016
 238.159042 1  7E0             Rx   d 8 20 00 00 00 00 00 00 00  Length = 0 BitCount = 126 ID = 2016
 238.159295 1  7E0             Rx   d 8 21 00 00 00 00 00 00 00  Length = 0 BitCount = 126 ID = 2016
 238.159547 1  7E0             Rx   d 8 22 00 00 00 00 00 00 00  Length = 0 BitCount = 126 ID = 2016
 238.159799 1  7E0             Rx   d 8 23 00 00 00 00 00 00 00  Length = 0 BitCount = 126 ID = 2016
 238.160049 1  7E0             Rx   d 8 24 00 00 00 00 00 00 00  Length = 0 BitCount = 125 ID = 2016
 238.160291 1  7E0             Rx   d 8 25 60 00 00 02 E0 FA 70  Length = 0 BitCount = 121 ID = 2016
 238.160536 1  7E0             Rx   d 8 26 80 00 00 71 80 00 71  Length = 0 BitCount = 122 ID = 2016
 238.160778 1  7E0             Rx   d 8 27 0F 80 01 01 03 09 FA  Length = 0 BitCount = 121 ID = 2016
 238.161020 1  7E0             Rx   d 8 28 FA FA FA FA FA FA FA  Length = 0 BitCount = 121 ID = 2016
 238.161266 1  7E0             Rx   d 8 29 FA FA FA FA 00 00 00  Length = 0 BitCount = 123 ID = 2016
 238.161516 1  7E0             Rx   d 8 2A 00 00 00 00 00 00 00  Length = 0 BitCount = 125 ID = 2016
 238.161767 1  7E0             Rx   d 8 2B 00 00 00 00 00 00 00  Length = 0 BitCount = 125 ID = 2016
 238.162017 1  7E0             Rx   d 8 2C 00 00 00 00 00 00 00  Length = 0 BitCount = 125 ID = 2016
 238.162271 1  7E0             Rx   d 8 2D 00 00 00 00 00 00 00  Length = 0 BitCount = 127 ID = 2016
 238.162507 1  7E0             Rx   d 8 2E 00 E8 FA 70 80 41 31  Length = 0 BitCount = 118 ID = 2016
 238.162735 1  7E0             Rx   d 8 2F 32 33 34 35 36 37 38  Length = 0 BitCount = 114 ID = 2016
 238.162980 1  7E0             Rx   d 8 20 39 00 00 00 01 0A 80  Length = 0 BitCount = 122 ID = 2016
 238.163224 1  7E0             Rx   d 8 21 F7 FF 70 80 09 00 00  Length = 0 BitCount = 122 ID = 2016
 238.163460 1  7E0             Rx   d 8 22 02 F8 FF 70 80 B8 DB  Length = 0 BitCount = 118 ID = 2016
 238.163702 1  7E0             Rx   d 8 23 0E 80 37 01 0F 80 00  Length = 0 BitCount = 121 ID = 2016
 238.163944 1  7E0             Rx   d 8 24 00 00 02 1C 63 0B 80  Length = 0 BitCount = 121 ID = 2016
 238.164187 1  7E0             Rx   d 8 25 38 01 0F 80 57 01 0F  Length = 0 BitCount = 121 ID = 2016
 238.164431 1  7E0             Rx   d 8 26 80 00 00 00 02 20 63  Length = 0 BitCount = 122 ID = 2016
 238.164671 1  7E0             Rx   d 8 27 0B 80 58 01 0F 80 27  Length = 0 BitCount = 120 ID = 2016
 238.164919 1  7E0             Rx   d 8 28 27 0F 80 00 00 00 02  Length = 0 BitCount = 124 ID = 2016
 238.165153 1  7E0             Rx   d 8 29 24 63 0B 80 28 27 0F  Length = 0 BitCount = 117 ID = 2016
 238.165400 1  7E0             Rx   d 8 2A 80 BF 4C 0F 80 00 00  Length = 0 BitCount = 123 ID = 2016
 238.165636 1  7E0             Rx   d 8 2B 00 02 28 63 0B 80 C0  Length = 0 BitCount = 118 ID = 2016
 238.165880 1  7E0             Rx   d 8 2C 4C 0F 80 2F 70 0F 80  Length = 0 BitCount = 122 ID = 2016
 238.166122 1  7E0             Rx   d 8 2D 00 00 00 02 2C 63 0B  Length = 0 BitCount = 121 ID = 2016
 238.166364 1  7E0             Rx   d 8 2E 80 30 70 0F 80 4F 70  Length = 0 BitCount = 121 ID = 2016
 238.166609 1  7E0             Rx   d 8 2F 0F 80 00 00 00 02 30  Length = 0 BitCount = 122 ID = 2016
 238.166849 1  7E0             Rx   d 8 20 63 0B 80 50 70 0F 80  Length = 0 BitCount = 120 ID = 2016
 238.167093 1  7E0             Rx   d 8 21 6F 70 0F 80 00 00 00  Length = 0 BitCount = 122 ID = 2016
 238.167325 1  7E0             Rx   d 8 22 02 34 63 0B 80 28 71  Length = 0 BitCount = 116 ID = 2016
 238.167565 1  7E0             Rx   d 8 23 0F 80 EF CE 11 80 04  Length = 0 BitCount = 120 ID = 2016
 238.167810 1  7E0             Rx   d 8 24 00 00 02 30 04 0A 80  Length = 0 BitCount = 122 ID = 2016
 238.168042 1  7E0             Rx   d 8 25 D8 11 5D 9B 27 EE A2  Length = 0 BitCount = 116 ID = 2016
 238.168292 1  7E0             Rx   d 8 26 64 00 00 00 00 00 00  Length = 0 BitCount = 125 ID = 2016
 238.168544 1  7E0             Rx   d 8 27 00 00 00 00 00 00 00  Length = 0 BitCount = 126 ID = 2016
 238.168794 1  7E0             Rx   d 8 28 00 00 00 00 00 00 00  Length = 0 BitCount = 125 ID = 2016
 238.169039 1  7E0             Rx   d 8 29 00 00 00 00 A0 0A 82  Length = 0 BitCount = 122 ID = 2016
 238.169277 1  7E0             Rx   d 8 2A 00 CD 80 E3 0F 91 00  Length = 0 BitCount = 119 ID = 2016
 238.169515 1  7E0             Rx   d 8 2B 00 27 D9 22 10 15 A0  Length = 0 BitCount = 119 ID = 2016
 238.169753 1  7E0             Rx   d 8 2C 0F D2 02 89 22 48 01  Length = 0 BitCount = 119 ID = 2016
 238.169992 1  7E0             Rx   d 8 2D FC FE 91 40 88 FF D9  Length = 0 BitCount = 119 ID = 2016
 238.170230 1  7E0             Rx   d 8 2E FF D4 8F 4C F0 EF 8F  Length = 0 BitCount = 119 ID = 2016
 238.170470 1  7E0             Rx   d 8 2F 42 80 91 30 00 FF D9  Length = 0 BitCount = 120 ID = 2016
 238.170708 1  7E0             Rx   d 8 20 FF 00 06 19 FF 0C 90  Length = 0 BitCount = 119 ID = 2016
 238.170944 1  7E0             Rx   d 8 21 91 30 88 2F 8F FF CF  Length = 0 BitCount = 118 ID = 2016
 238.171179 1  7E0             Rx   d 8 22 F1 96 F1 D9 22 08 0D  Length = 0 BitCount = 117 ID = 2016
 238.171413 1  7E0             Rx   d 8 23 59 FF 0C 90 19 FF 0C  Length = 0 BitCount = 117 ID = 2016
 238.171649 1  7E0             Rx   d 8 24 90 19 FF 0C 90 8F FF  Length = 0 BitCount = 118 ID = 2016
 238.171881 1  7E0             Rx   d 8 25 CF F1 96 F2 59 FF 0C  Length = 0 BitCount = 116 ID = 2016
 238.172117 1  7E0             Rx   d 8 26 90 19 FF 0C 90 82 1F  Length = 0 BitCount = 118 ID = 2016
 238.172352 1  7E0             Rx   d 8 27 6C 20 91 30 88 2F D9  Length = 0 BitCount = 117 ID = 2016
 238.172590 1  7E0             Rx   d 8 28 22 00 0D 6C 20 91 30  Length = 0 BitCount = 119 ID = 2016
 238.172826 1  7E0             Rx   d 8 29 88 2F D9 22 04 0D 6C  Length = 0 BitCount = 118 ID = 2016
 238.173064 1  7E0             Rx   d 8 2A 20 19 FF 0C 90 8F FF  Length = 0 BitCount = 119 ID = 2016
 238.173296 1  7E0             Rx   d 8 2B CF F1 96 F1 59 FF 0C  Length = 0 BitCount = 116 ID = 2016
 238.173537 1  7E0             Rx   d 8 2C 90 19 FF 0C 90 19 FF  Length = 0 BitCount = 120 ID = 2016
 238.173773 1  7E0             Rx   d 8 2D 0C 90 8F FF CF F1 96  Length = 0 BitCount = 118 ID = 2016
 238.174009 1  7E0             Rx   d 8 2E F3 59 FF 0C 90 19 FF  Length = 0 BitCount = 118 ID = 2016
 238.174243 1  7E0             Rx   d 8 2F 0C 90 91 30 88 FF D9  Length = 0 BitCount = 117 ID = 2016
 238.174487 1  7E0             Rx   d 8 20 FF 00 0D 00 00 4C F0  Length = 0 BitCount = 122 ID = 2016
 238.174726 1  7E0             Rx   d 8 21 6F 2F FE 7F 7B 20 01  Length = 0 BitCount = 119 ID = 2016
 238.174962 1  7E0             Rx   d 8 22 F8 1B 0F 00 F6 91 40  Length = 0 BitCount = 118 ID = 2016
 238.175202 1  7E0             Rx   d 8 23 88 FF D9 FF C8 8F 68  Length = 0 BitCount = 120 ID = 2016
 238.175442 1  7E0             Rx   d 8 24 0F 91 40 88 FF D9 FF  Length = 0 BitCount = 120 ID = 2016
 238.175672 1  7E0             Rx   d 8 25 D4 8F 4C F0 B7 0F 01  Length = 0 BitCount = 115 ID = 2016
 238.175911 1  7E0             Rx   d 8 26 FC 68 0F 91 60 88 FF  Length = 0 BitCount = 119 ID = 2016
 238.176147 1  7E0             Rx   d 8 27 D9 FF D4 8F 4C F0 EF  Length = 0 BitCount = 118 ID = 2016
 238.176383 1  7E0             Rx   d 8 28 8F 42 80 91 30 00 FF  Length = 0 BitCount = 118 ID = 2016
 238.176621 1  7E0             Rx   d 8 29 D9 FF 00 06 19 FF 0C  Length = 0 BitCount = 119 ID = 2016
 238.176857 1  7E0             Rx   d 8 2A 90 91 50 88 2F 8F FF  Length = 0 BitCount = 118 ID = 2016
 238.177090 1  7E0             Rx   d 8 2B CF F1 96 F1 D9 22 08  Length = 0 BitCount = 116 ID = 2016
 238.177326 1  7E0             Rx   d 8 2C 0D 59 FF 0C 90 19 FF  Length = 0 BitCount = 118 ID = 2016
 238.177560 1  7E0             Rx   d 8 2D 0C 90 19 FF 0C 90 8F  Length = 0 BitCount = 117 ID = 2016
 238.177798 1  7E0             Rx   d 8 2E FF CF F1 96 F2 59 FF  Length = 0 BitCount = 119 ID = 2016
 238.178032 1  7E0             Rx   d 8 2F 0C 90 19 FF 0C 90 82  Length = 0 BitCount = 117 ID = 2016
 238.178271 1  7E0             Rx   d 8 20 1F 6C 20 91 50 88 2F  Length = 0 BitCount = 119 ID = 2016
 238.178505 1  7E0             Rx   d 8 21 D9 22 00 0D 6C 20 91  Length = 0 BitCount = 117 ID = 2016
 238.178741 1  7E0             Rx   d 8 22 50 88 2F D9 22 04 0D  Length = 0 BitCount = 118 ID = 2016
 238.178979 1  7E0             Rx   d 8 23 6C 20 19 FF 0C 90 8F  Length = 0 BitCount = 119 ID = 2016
 238.179217 1  7E0             Rx   d 8 24 FF CF F1 96 F1 59 FF  Length = 0 BitCount = 119 ID = 2016
 238.179452 1  7E0             Rx   d 8 25 0C 90 19 FF 0C 90 19  Length = 0 BitCount = 117 ID = 2016
 238.179690 1  7E0             Rx   d 8 26 FF 0C 90 8F FF CF F1  Length = 0 BitCount = 119 ID = 2016
 238.179922 1  7E0             Rx   d 8 27 96 F3 59 FF 0C 90 19  Length = 0 BitCount = 116 ID = 2016
 238.188598 1  7E0             Rx   d 8 28 FF 0C 90 91 50 88 FF  Length = 0 BitCount = 118 ID = 2016
 238.188840 1  7E0             Rx   d 8 29 D9 FF 00 0D 00 00 4C  Length = 0 BitCount = 121 ID = 2016
 238.189079 1  7E0             Rx   d 8 2A F0 6F 2F FE 7F 7B 20  Length = 0 BitCount = 119 ID = 2016
 238.189315 1  7E0             Rx   d 8 2B 01 F8 1B CF 06 F6 91  Length = 0 BitCount = 118 ID = 2016
 238.189555 1  7E0             Rx   d 8 2C 60 88 FF D9 FF C8 8F  Length = 0 BitCount = 120 ID = 2016
 238.189795 1  7E0             Rx   d 8 2D 68 0F 91 60 88 FF D9  Length = 0 BitCount = 120 ID = 2016
 238.190029 1  7E0             Rx   d 8 2E FF D4 8F 4C F0 B7 0F  Length = 0 BitCount = 117 ID = 2016
 238.190270 1  7E0             Rx   d 8 2F 01 FC 68 0F 91 80 88  Length = 0 BitCount = 120 ID = 2016
 238.190510 1  7E0             Rx   d 8 20 FF D9 FF D4 8F 4C F0  Length = 0 BitCount = 120 ID = 2016
 238.190748 1  7E0             Rx   d 8 21 EF 8F 42 80 91 30 00  Length = 0 BitCount = 119 ID = 2016
 238.190990 1  7E0             Rx   d 8 22 FF D9 FF 00 06 19 FF  Length = 0 BitCount = 121 ID = 2016
 238.191222 1  7E0             Rx   d 8 23 0C 90 91 70 88 2F 8F  Length = 0 BitCount = 116 ID = 2016
 238.191457 1  7E0             Rx   d 8 24 FF CF F1 96 F1 D9 22  Length = 0 BitCount = 117 ID = 2016
 238.191693 1  7E0             Rx   d 8 25 08 0D 59 FF 0C 90 19  Length = 0 BitCount = 118 ID = 2016
 238.191933 1  7E0             Rx   d 8 26 FF 0C 90 19 FF 0C 90  Length = 0 BitCount = 120 ID = 2016
 238.192167 1  7E0             Rx   d 8 27 8F FF CF F1 96 F2 59  Length = 0 BitCount = 117 ID = 2016
 238.192401 1  7E0             Rx   d 8 28 FF 0C 90 19 FF 0C 90  Length = 0 BitCount = 117 ID = 2016
 238.192636 1  7E0             Rx   d 8 29 82 1F 6C 20 91 70 88  Length = 0 BitCount = 117 ID = 2016
 238.192874 1  7E0             Rx   d 8 2A 2F D9 22 00 0D 6C 20  Length = 0 BitCount = 119 ID = 2016
 238.193112 1  7E0             Rx   d 8 2B 91 70 88 2F D9 22 04  Length = 0 BitCount = 119 ID = 2016
 238.193348 1  7E0             Rx   d 8 2C 0D 6C 20 19 FF 0C 90  Length = 0 BitCount = 118 ID = 2016
 238.193583 1  7E0             Rx   d 8 2D 8F FF CF F1 96 F1 59  Length = 0 BitCount = 117 ID = 2016
 238.193819 1  7E0             Rx   d 8 2E FF 0C 90 19 FF 0C 90  Length = 0 BitCount = 118 ID = 2016
 238.194053 1  7E0             Rx   d 8 2F 19 FF 0C 90 8F FF CF  Length = 0 BitCount = 117 ID = 2016
 238.194289 1  7E0             Rx   d 8 20 F1 96 F3 59 FF 0C 90  Length = 0 BitCount = 118 ID = 2016
 238.194521 1  7E0             Rx   d 8 21 19 FF 0C 90 91 70 88  Length = 0 BitCount = 116 ID = 2016
 238.194766 1  7E0             Rx   d 8 22 FF D9 FF 00 0D 00 00  Length = 0 BitCount = 122 ID = 2016
 238.195002 1  7E0             Rx   d 8 23 4C F0 6F 2F FE 7F 7B  Length = 0 BitCount = 118 ID = 2016
 238.195240 1  7E0             Rx   d 8 24 20 01 F8 1B 8F 0D F6  Length = 0 BitCount = 119 ID = 2016
 238.195480 1  7E0             Rx   d 8 25 91 80 88 FF D9 FF C8  Length = 0 BitCount = 120 ID = 2016
 238.195716 1  7E0             Rx   d 8 26 8F 68 0F 91 80 88 FF  Length = 0 BitCount = 118 ID = 2016
 238.195955 1  7E0             Rx   d 8 27 D9 FF D4 8F 4C F0 B7  Length = 0 BitCount = 119 ID = 2016
 238.196193 1  7E0             Rx   d 8 28 0F 01 FC 68 0F 1D 04  Length = 0 BitCount = 119 ID = 2016
 238.196427 1  7E0             Rx   d 8 29 8D 2E 00 00 49 BB 78  Length = 0 BitCount = 117 ID = 2016
 238.196673 1  7E0             Rx   d 8 2A BF 00 00 00 00 20 08  Length = 0 BitCount = 123 ID = 2016
 238.196909 1  7E0             Rx   d 8 2B 4D C0 E1 FF 7B C0 03  Length = 0 BitCount = 118 ID = 2016
 238.197142 1  7E0             Rx   d 8 2C 28 1B 02 15 2B 13 4F  Length = 0 BitCount = 116 ID = 2016
 238.197374 1  7E0             Rx   d 8 2D 21 32 60 32 CC 20 4D  Length = 0 BitCount = 116 ID = 2016
 238.197616 1  7E0             Rx   d 8 2E C0 E2 9F 0D 00 40 03  Length = 0 BitCount = 121 ID = 2016
 238.197858 1  7E0             Rx   d 8 2F BB D0 03 F8 CD CF E2  Length = 0 BitCount = 121 ID = 2016
 238.198094 1  7E0             Rx   d 8 20 0F 0D 00 C0 04 48 AA  Length = 0 BitCount = 118 ID = 2016
 238.198331 1  7E0             Rx   d 8 21 4C F9 6E 15 02 9F 16  Length = 0 BitCount = 118 ID = 2016
 238.198565 1  7E0             Rx   d 8 22 FF EE 1D C8 93 82 68  Length = 0 BitCount = 117 ID = 2016
 238.198797 1  7E0             Rx   d 8 23 D4 33 39 3F 16 00 EE  Length = 0 BitCount = 116 ID = 2016
 238.199031 1  7E0             Rx   d 8 24 18 C8 93 4C 33 68 AF  Length = 0 BitCount = 117 ID = 2016
 238.199265 1  7E0             Rx   d 8 25 C8 93 4C 38 6E 06 C8  Length = 0 BitCount = 117 ID = 2016
 238.199500 1  7E0             Rx   d 8 26 93 99 33 20 00 4C 33  Length = 0 BitCount = 117 ID = 2016
 238.199730 1  7E0             Rx   d 8 27 68 AF 4C F7 48 A2 7F  Length = 0 BitCount = 115 ID = 2016
 238.199968 1  7E0             Rx   d 8 28 F2 06 80 99 22 0C 00  Length = 0 BitCount = 119 ID = 2016
 238.208136 1  7E0             Rx   d 8 29 2D 02 00 00 68 AA 82  Length = 0 BitCount = 120 ID = 2016
 238.208382 1  7E0             Rx   d 8 2A 08 3C 0A 82 28 82 0F  Length = 0 BitCount = 123 ID = 2016
 238.208617 1  7E0             Rx   d 8 2B 02 84 3B 90 03 50 D2  Length = 0 BitCount = 117 ID = 2016
 238.208855 1  7E0             Rx   d 8 2C 06 78 00 6D 00 71 08  Length = 0 BitCount = 119 ID = 2016
 238.209093 1  7E0             Rx   d 8 2D CD C9 E2 0F 0D 00 C0  Length = 0 BitCount = 119 ID = 2016
 238.209333 1  7E0             Rx   d 8 2E 04 02 82 00 90 91 C0  Length = 0 BitCount = 120 ID = 2016
 238.209569 1  7E0             Rx   d 8 2F 03 F8 99 FF 10 5B 6D  Length = 0 BitCount = 118 ID = 2016
 238.209810 1  7E0             Rx   d 8 20 00 5D 1D 02 2F 82 02  Length = 0 BitCount = 120 ID = 2016
 238.210038 1  7E0             Rx   d 8 21 C8 BC 48 A8 48 9C 39  Length = 0 BitCount = 114 ID = 2016
 238.210276 1  7E0             Rx   d 8 22 FB 01 10 E9 F2 01 10  Length = 0 BitCount = 119 ID = 2016
 238.210512 1  7E0             Rx   d 8 23 19 C2 04 00 54 C3 52  Length = 0 BitCount = 118 ID = 2016
 238.210748 1  7E0             Rx   d 8 24 22 42 23 39 FA 00 10  Length = 0 BitCount = 118 ID = 2016
 238.210983 1  7E0             Rx   d 8 25 91 00 00 D7 74 C3 19  Length = 0 BitCount = 117 ID = 2016
 238.211221 1  7E0             Rx   d 8 26 C3 0C 00 7B 00 00 97  Length = 0 BitCount = 119 ID = 2016
 238.211457 1  7E0             Rx   d 8 27 42 32 7B C0 03 E8 D9  Length = 0 BitCount = 118 ID = 2016
 238.211693 1  7E0             Rx   d 8 28 DD 2C E7 59 C2 0C 00  Length = 0 BitCount = 118 ID = 2016
 238.211925 1  7E0             Rx   d 8 29 6C C1 1B 49 E1 96 1B  Length = 0 BitCount = 116 ID = 2016
 238.212160 1  7E0             Rx   d 8 2A CE B7 EA 40 DE 60 94  Length = 0 BitCount = 117 ID = 2016
 238.212398 1  7E0             Rx   d 8 2B 6D 00 64 0B DF 02 FD  Length = 0 BitCount = 119 ID = 2016
 238.212636 1  7E0             Rx   d 8 2C FF 91 00 00 37 D9 32  Length = 0 BitCount = 119 ID = 2016
 238.212872 1  7E0             Rx   d 8 2D FC 76 19 22 1C 00 0F  Length = 0 BitCount = 118 ID = 2016
 238.213108 1  7E0             Rx   d 8 2E 02 B0 21 53 82 3D 20  Length = 0 BitCount = 118 ID = 2016
 238.213345 1  7E0             Rx   d 8 2F 1B 82 4D 20 42 E2 68  Length = 0 BitCount = 118 ID = 2016
 238.213579 1  7E0             Rx   d 8 20 92 C8 92 19 22 20 00  Length = 0 BitCount = 117 ID = 2016
 238.213815 1  7E0             Rx   d 8 21 DF 02 2E 00 C8 92 99  Length = 0 BitCount = 118 ID = 2016
 238.214055 1  7E0             Rx   d 8 22 22 20 00 19 22 08 00  Length = 0 BitCount = 120 ID = 2016
 238.214288 1  7E0             Rx   d 8 23 01 D2 02 26 D4 22 54  Length = 0 BitCount = 116 ID = 2016
 238.214518 1  7E0             Rx   d 8 24 22 68 92 C8 92 C8 93  Length = 0 BitCount = 115 ID = 2016
 238.214750 1  7E0             Rx   d 8 25 C8 94 99 22 20 00 99  Length = 0 BitCount = 116 ID = 2016
 238.214988 1  7E0             Rx   d 8 26 33 20 00 99 44 20 00  Length = 0 BitCount = 119 ID = 2016
 238.215228 1  7E0             Rx   d 8 27 19 24 08 00 19 32 08  Length = 0 BitCount = 120 ID = 2016
 238.215465 1  7E0             Rx   d 8 28 00 01 D2 02 36 19 42  Length = 0 BitCount = 118 ID = 2016
 238.215701 1  7E0             Rx   d 8 29 04 00 54 33 C8 93 99  Length = 0 BitCount = 118 ID = 2016
 238.215939 1  7E0             Rx   d 8 2A 33 20 00 5F 23 04 80  Length = 0 BitCount = 119 ID = 2016
 238.216173 1  7E0             Rx   d 8 2B 54 32 3C 07 19 32 08  Length = 0 BitCount = 117 ID = 2016
 238.216409 1  7E0             Rx   d 8 2C 00 01 D2 02 36 54 32  Length = 0 BitCount = 118 ID = 2016
 238.216642 1  7E0             Rx   d 8 2D C2 42 01 E4 02 26 74  Length = 0 BitCount = 116 ID = 2016
 238.216880 1  7E0             Rx   d 8 2E 22 82 02 91 00 00 37  Length = 0 BitCount = 119 ID = 2016
 238.217114 1  7E0             Rx   d 8 2F D9 32 FC 76 59 22 18  Length = 0 BitCount = 117 ID = 2016
 238.217354 1  7E0             Rx   d 8 20 00 0D 00 80 04 C8 92  Length = 0 BitCount = 120 ID = 2016
 238.217586 1  7E0             Rx   d 8 21 D4 22 E9 22 16 00 C8  Length = 0 BitCount = 116 ID = 2016
 238.217819 1  7E0             Rx   d 8 22 92 19 23 10 00 68 A3  Length = 0 BitCount = 116 ID = 2016
 238.218049 1  7E0             Rx   d 8 23 C8 92 39 23 25 00 91  Length = 0 BitCount = 115 ID = 2016
 238.218283 1  7E0             Rx   d 8 24 C0 03 28 D9 22 04 5B  Length = 0 BitCount = 117 ID = 2016
 238.218519 1  7E0             Rx   d 8 25 01 23 01 26 39 23 01  Length = 0 BitCount = 118 ID = 2016
 238.218761 1  7E0             Rx   d 8 26 00 C8 92 E9 F3 00 10  Length = 0 BitCount = 121 ID = 2016
 238.218994 1  7E0             Rx   d 8 27 C8 94 D4 22 D9 23 04  Length = 0 BitCount = 116 ID = 2016
 238.219226 1  7E0             Rx   d 8 28 00 E8 B3 6C 22 59 22  Length = 0 BitCount = 116 ID = 2016
 238.219464 1  7E0             Rx   d 8 29 04 00 6D 00 89 1F BB  Length = 0 BitCount = 119 ID = 2016
 238.226290 1  7E0             Rx   d 8 2A 00 00 F8 CD CF E2 0F  Length = 0 BitCount = 121 ID = 2016
 238.226526 1  7E0             Rx   d 8 2B 0D 00 C0 04 C8 92 99  Length = 0 BitCount = 118 ID = 2016
 238.226769 1  7E0             Rx   d 8 2C 22 04 00 2D 02 00 00  Length = 0 BitCount = 121 ID = 2016
 238.227007 1  7E0             Rx   d 8 2D 0D 00 40 03 BB D0 03  Length = 0 BitCount = 119 ID = 2016
 238.227247 1  7E0             Rx   d 8 2E F8 CD CF E2 0F 0D 00  Length = 0 BitCount = 120 ID = 2016
 238.227483 1  7E0             Rx   d 8 2F C0 04 6D 00 B7 1C C8  Length = 0 BitCount = 118 ID = 2016
 238.227721 1  7E0             Rx   d 8 20 B2 02 2F 19 23 04 00  Length = 0 BitCount = 119 ID = 2016
 238.228030 1  7E0             Rx   d 8 21 54 22 19 24 0C 00 52  Length = 0 BitCount = 117 ID = 2016
 238.228260 1  7E0             Rx   d 8 22 33 42 32 42 43 6C 21  Length = 0 BitCount = 115 ID = 2016
 238.228494 1  7E0             Rx   d 8 23 74 22 59 23 0C 00 19  Length = 0 BitCount = 117 ID = 2016
 238.228732 1  7E0             Rx   d 8 24 23 08 00 7F 23 04 80  Length = 0 BitCount = 119 ID = 2016
 238.228966 1  7E0             Rx   d 8 25 59 22 08 00 C8 94 6D  Length = 0 BitCount = 117 ID = 2016
 238.229205 1  7E0             Rx   d 8 26 00 63 1F 60 94 6D 00  Length = 0 BitCount = 119 ID = 2016
 238.229447 1  7E0             Rx   d 8 27 CB 0A DF 02 FD FF C8  Length = 0 BitCount = 121 ID = 2016
 238.229679 1  7E0             Rx   d 8 28 92 D4 22 39 22 15 00  Length = 0 BitCount = 116 ID = 2016
 238.229909 1  7E0             Rx   d 8 29 C2 F2 E9 22 15 00 C8  Length = 0 BitCount = 115 ID = 2016
 238.230139 1  7E0             Rx   d 8 2A 92 D4 22 39 22 15 00  Length = 0 BitCount = 115 ID = 2016
 238.230378 1  7E0             Rx   d 8 2B F6 2E 91 00 00 37 D9  Length = 0 BitCount = 119 ID = 2016
 238.230612 1  7E0             Rx   d 8 2C 32 FC 76 19 22 1C 00  Length = 0 BitCount = 117 ID = 2016
 238.230850 1  7E0             Rx   d 8 2D C8 93 19 33 08 00 0F  Length = 0 BitCount = 119 ID = 2016
 238.231088 1  7E0             Rx   d 8 2E 32 E0 20 59 22 1C 00  Length = 0 BitCount = 119 ID = 2016
 238.231326 1  7E0             Rx   d 8 2F 19 F2 10 10 DF 02 63  Length = 0 BitCount = 119 ID = 2016
 238.231567 1  7E0             Rx   d 8 20 00 99 F2 10 10 82 12  Length = 0 BitCount = 120 ID = 2016
 238.231801 1  7E0             Rx   d 8 21 D4 22 E9 22 14 00 99  Length = 0 BitCount = 117 ID = 2016
 238.232035 1  7E0             Rx   d 8 22 F2 10 10 54 2D 6D 00  Length = 0 BitCount = 117 ID = 2016
 238.232267 1  7E0             Rx   d 8 23 73 1C 60 D2 74 22 99  Length = 0 BitCount = 116 ID = 2016
 238.232497 1  7E0             Rx   d 8 24 F2 10 10 D4 22 39 22  Length = 0 BitCount = 115 ID = 2016
 238.232728 1  7E0             Rx   d 8 25 15 00 C2 12 E9 22 15  Length = 0 BitCount = 115 ID = 2016
 238.232964 1  7E0             Rx   d 8 26 00 99 F2 10 10 19 22  Length = 0 BitCount = 118 ID = 2016
 238.233210 1  7E0             Rx   d 8 27 20 00 DF 02 38 00 99  Length = 0 BitCount = 123 ID = 2016
 238.233444 1  7E0             Rx   d 8 28 F2 10 10 99 22 20 00  Length = 0 BitCount = 117 ID = 2016
 238.233684 1  7E0             Rx   d 8 29 19 22 08 00 01 D2 02  Length = 0 BitCount = 120 ID = 2016
 238.233917 1  7E0             Rx   d 8 2A 26 19 F2 10 10 99 22  Length = 0 BitCount = 116 ID = 2016
 238.234155 1  7E0             Rx   d 8 2B 04 00 74 22 99 F2 10  Length = 0 BitCount = 119 ID = 2016
 238.234391 1  7E0             Rx   d 8 2C 10 99 F3 10 10 99 F4  Length = 0 BitCount = 118 ID = 2016
 238.234625 1  7E0             Rx   d 8 2D 10 10 99 22 20 00 99  Length = 0 BitCount = 117 ID = 2016
 238.234862 1  7E0             Rx   d 8 2E 33 20 00 99 44 20 00  Length = 0 BitCount = 118 ID = 2016
 238.235100 1  7E0             Rx   d 8 2F 19 24 08 00 19 32 08  Length = 0 BitCount = 119 ID = 2016
 238.235336 1  7E0             Rx   d 8 20 00 C2 14 01 D2 02 36  Length = 0 BitCount = 118 ID = 2016
 238.235572 1  7E0             Rx   d 8 21 19 42 04 00 19 33 04  Length = 0 BitCount = 118 ID = 2016
 238.235808 1  7E0             Rx   d 8 22 00 99 F3 10 10 99 33  Length = 0 BitCount = 118 ID = 2016
 238.236049 1  7E0             Rx   d 8 23 20 00 5F 23 04 80 54  Length = 0 BitCount = 120 ID = 2016
 238.236289 1  7E0             Rx   d 8 24 32 3C 08 19 32 08 00  Length = 0 BitCount = 120 ID = 2016
 238.236523 1  7E0             Rx   d 8 25 01 D2 02 36 19 32 04  Length = 0 BitCount = 117 ID = 2016
 238.236759 1  7E0             Rx   d 8 26 00 C2 42 01 E4 02 26  Length = 0 BitCount = 118 ID = 2016
 238.236995 1  7E0             Rx   d 8 27 74 22 91 00 00 37 D9  Length = 0 BitCount = 118 ID = 2016
 238.237236 1  7E0             Rx   d 8 28 32 FC 76 19 23 1C 00  Length = 0 BitCount = 120 ID = 2016
 238.237474 1  7E0             Rx   d 8 29 99 F3 10 10 19 32 08  Length = 0 BitCount = 119 ID = 2016
 238.237710 1  7E0             Rx   d 8 2A 00 A6 32 59 22 1C 00  Length = 0 BitCount = 118 ID = 2016
 238.237948 1  7E0             Rx   d 8 2B 82 02 59 F2 10 10 82  Length = 0 BitCount = 119 ID = 2016
 238.238186 1  7E0             Rx   d 8 2C 02 91 00 00 37 D9 32  Length = 0 BitCount = 119 ID = 2016
 238.238423 1  7E0             Rx   d 8 2D FC 76 59 22 18 00 0D  Length = 0 BitCount = 118 ID = 2016
 238.238663 1  7E0             Rx   d 8 2E 00 80 04 19 22 1C 00  Length = 0 BitCount = 120 ID = 2016
 238.238895 1  7E0             Rx   d 8 2F 3F 28 D9 FE 68 A8 E9  Length = 0 BitCount = 116 ID = 2016
 238.239135 1  7E0             Rx   d 8 20 FB 01 10 68 9C E9 FA  Length = 0 BitCount = 120 ID = 2016
 238.239371 1  7E0             Rx   d 8 21 00 10 E8 BC 6C C1 00  Length = 0 BitCount = 118 ID = 2016
 238.239608 1  7E0             Rx   d 8 22 90 91 C0 03 F8 D9 FF  Length = 0 BitCount = 118 ID = 2016
 238.239848 1  7E0             Rx   d 8 23 10 5B C8 5F 6D 00 00  Length = 0 BitCount = 120 ID = 2016
 238.240088 1  7E0             Rx   d 8 24 1C 02 2F 82 02 C8 BC  Length = 0 BitCount = 120 ID = 2016
 238.240320 1  7E0             Rx   d 8 25 48 A8 48 9C 39 FB 01  Length = 0 BitCount = 116 ID = 2016
 238.240556 1  7E0             Rx   d 8 26 10 E9 F2 01 10 19 C2  Length = 0 BitCount = 118 ID = 2016
 238.240791 1  7E0             Rx   d 8 27 04 00 54 C3 52 22 42  Length = 0 BitCount = 117 ID = 2016
 238.241029 1  7E0             Rx   d 8 28 23 39 FA 00 10 91 00  Length = 0 BitCount = 119 ID = 2016
 238.241259 1  7E0             Rx   d 8 29 00 D7 74 C3 19 C3 0C  Length = 0 BitCount = 115 ID = 2016
 238.241499 1  7E0             Rx   d 8 2A 00 7B 30 00 96 42 32  Length = 0 BitCount = 120 ID = 2016
 238.241733 1  7E0             Rx   d 8 2B 7B C0 03 E8 D9 DD 2C  Length = 0 BitCount = 117 ID = 2016
 238.241970 1  7E0             Rx   d 8 2C E7 59 C2 0C 00 6C C1  Length = 0 BitCount = 118 ID = 2016
 238.242200 1  7E0             Rx   d 8 2D 1B C9 B7 9C 1B CE 94  Length = 0 BitCount = 115 ID = 2016
 238.242436 1  7E0             Rx   d 8 2E EA 40 DE 60 94 6D 00  Length = 0 BitCount = 118 ID = 2016
 238.242676 1  7E0             Rx   d 8 2F 07 0A DF 02 FD FF 91  Length = 0 BitCount = 120 ID = 2016
 238.242914 1  7E0             Rx   d 8 20 30 00 36 D9 32 A4 DC  Length = 0 BitCount = 119 ID = 2016
 238.243151 1  7E0             Rx   d 8 21 19 22 1C 00 0F 02 B0  Length = 0 BitCount = 118 ID = 2016
 238.243389 1  7E0             Rx   d 8 22 21 53 82 3D 20 1B 82  Length = 0 BitCount = 119 ID = 2016
 238.243619 1  7E0             Rx   d 8 23 4D 20 42 E2 68 92 C8  Length = 0 BitCount = 115 ID = 2016
 238.243855 1  7E0             Rx   d 8 24 92 19 22 20 00 DF 02  Length = 0 BitCount = 118 ID = 2016
 238.244087 1  7E0             Rx   d 8 25 2E 00 C8 92 99 22 20  Length = 0 BitCount = 116 ID = 2016
 238.244328 1  7E0             Rx   d 8 26 00 19 22 08 00 01 D2  Length = 0 BitCount = 120 ID = 2016
 238.244560 1  7E0             Rx   d 8 27 02 26 D4 22 54 22 68  Length = 0 BitCount = 116 ID = 2016
 238.244792 1  7E0             Rx   d 8 28 92 C8 92 C8 93 C8 94  Length = 0 BitCount = 116 ID = 2016
 238.245026 1  7E0             Rx   d 8 29 99 22 20 00 99 33 20  Length = 0 BitCount = 117 ID = 2016
 238.245262 1  7E0             Rx   d 8 2A 00 99 44 20 00 19 24  Length = 0 BitCount = 118 ID = 2016
 238.245503 1  7E0             Rx   d 8 2B 08 00 19 32 08 00 01  Length = 0 BitCount = 120 ID = 2016
 238.245743 1  7E0             Rx   d 8 2C D2 02 36 19 42 04 00  Length = 0 BitCount = 120 ID = 2016
 238.245973 1  7E0             Rx   d 8 2D 54 33 C8 93 99 33 20  Length = 0 BitCount = 115 ID = 2016
 238.246211 1  7E0             Rx   d 8 2E 00 5F 23 04 80 54 32  Length = 0 BitCount = 119 ID = 2016
 238.246449 1  7E0             Rx   d 8 2F 3C 07 19 32 08 00 01  Length = 0 BitCount = 119 ID = 2016
 238.246684 1  7E0             Rx   d 8 20 D2 02 36 54 32 C2 42  Length = 0 BitCount = 117 ID = 2016
 238.246918 1  7E0             Rx   d 8 21 01 E4 02 26 74 22 82  Length = 0 BitCount = 117 ID = 2016
 238.247152 1  7E0             Rx   d 8 22 02 91 30 00 36 D9 32  Length = 0 BitCount = 117 ID = 2016
 238.247386 1  7E0             Rx   d 8 23 A4 DC 59 22 18 00 0D  Length = 0 BitCount = 117 ID = 2016
 238.247622 1  7E0             Rx   d 8 24 00 80 04 C8 92 D4 22  Length = 0 BitCount = 118 ID = 2016
 238.247853 1  7E0             Rx   d 8 25 E9 22 16 00 C8 92 19  Length = 0 BitCount = 115 ID = 2016
 238.248085 1  7E0             Rx   d 8 26 23 10 00 68 A3 C8 92  Length = 0 BitCount = 116 ID = 2016
 238.248319 1  7E0             Rx   d 8 27 39 23 25 00 91 C0 03  Length = 0 BitCount = 117 ID = 2016
 238.248557 1  7E0             Rx   d 8 28 28 D9 22 04 5B 01 23  Length = 0 BitCount = 119 ID = 2016
 238.248791 1  7E0             Rx   d 8 29 01 26 39 23 01 00 C8  Length = 0 BitCount = 117 ID = 2016
 238.249028 1  7E0             Rx   d 8 2A 92 E9 F3 00 10 C8 94  Length = 0 BitCount = 118 ID = 2016
 238.249262 1  7E0             Rx   d 8 2B D4 22 D9 23 04 00 E8  Length = 0 BitCount = 117 ID = 2016
 238.249496 1  7E0             Rx   d 8 2C B3 6C 22 59 22 04 00  Length = 0 BitCount = 117 ID = 2016
 238.249740 1  7E0             Rx   d 8 2D 6D 00 2C 1E BB 00 00  Length = 0 BitCount = 122 ID = 2016
 238.249980 1  7E0             Rx   d 8 2E F8 CD CF E2 0F 0D 00  Length = 0 BitCount = 120 ID = 2016
 238.250219 1  7E0             Rx   d 8 2F C0 04 C8 92 99 22 04  Length = 0 BitCount = 119 ID = 2016
 238.250465 1  7E0             Rx   d 8 20 00 2D 02 00 00 0D 00  Length = 0 BitCount = 123 ID = 2016
 238.250703 1  7E0             Rx   d 8 21 40 03 BB D0 03 F8 CD  Length = 0 BitCount = 119 ID = 2016
 238.250947 1  7E0             Rx   d 8 22 CF E2 0F 0D 00 C0 04  Length = 0 BitCount = 122 ID = 2016
 238.251181 1  7E0             Rx   d 8 23 6D 00 5A 1B C8 B2 02  Length = 0 BitCount = 117 ID = 2016
 238.251418 1  7E0             Rx   d 8 24 2F 19 23 04 00 54 22  Length = 0 BitCount = 118 ID = 2016
 238.251654 1  7E0             Rx   d 8 25 19 24 0C 00 52 33 42  Length = 0 BitCount = 118 ID = 2016
 238.251882 1  7E0             Rx   d 8 26 32 42 43 6C 21 74 22  Length = 0 BitCount = 114 ID = 2016
 238.252116 1  7E0             Rx   d 8 27 59 23 0C 00 19 23 08  Length = 0 BitCount = 117 ID = 2016
 238.252357 1  7E0             Rx   d 8 28 00 7F 23 04 80 59 22  Length = 0 BitCount = 120 ID = 2016
 238.252595 1  7E0             Rx   d 8 29 08 00 C8 94 6D 00 06  Length = 0 BitCount = 119 ID = 2016
 238.252829 1  7E0             Rx   d 8 2A 1E 60 94 6D 00 6E 09  Length = 0 BitCount = 117 ID = 2016
 238.253069 1  7E0             Rx   d 8 2B DF 02 FD FF C8 92 D4  Length = 0 BitCount = 120 ID = 2016
 238.253299 1  7E0             Rx   d 8 2C 22 39 22 15 00 C2 F2  Length = 0 BitCount = 115 ID = 2016
 238.253530 1  7E0             Rx   d 8 2D E9 22 15 00 C8 92 D4  Length = 0 BitCount = 115 ID = 2016
 238.253760 1  7E0             Rx   d 8 2E 22 39 22 15 00 F6 2E  Length = 0 BitCount = 115 ID = 2016
 238.253994 1  7E0             Rx   d 8 2F 91 30 00 36 D9 32 A4  Length = 0 BitCount = 117 ID = 2016
 238.254230 1  7E0             Rx   d 8 20 DC 19 22 1C 00 C8 93  Length = 0 BitCount = 118 ID = 2016
 238.254470 1  7E0             Rx   d 8 21 19 33 08 00 0F 32 E0  Length = 0 BitCount = 120 ID = 2016
 238.254709 1  7E0             Rx   d 8 22 20 59 22 1C 00 19 F2  Length = 0 BitCount = 119 ID = 2016
 238.254945 1  7E0             Rx   d 8 23 10 10 DF 02 63 00 99  Length = 0 BitCount = 118 ID = 2016
 238.255179 1  7E0             Rx   d 8 24 F2 10 10 82 12 D4 22  Length = 0 BitCount = 117 ID = 2016
 238.255415 1  7E0             Rx   d 8 25 E9 22 14 00 99 F2 10  Length = 0 BitCount = 118 ID = 2016
 238.255649 1  7E0             Rx   d 8 26 10 54 2D 6D 00 16 1B  Length = 0 BitCount = 117 ID = 2016
 238.255884 1  7E0             Rx   d 8 27 60 D2 74 22 99 F2 10  Length = 0 BitCount = 117 ID = 2016
 238.256118 1  7E0             Rx   d 8 28 10 D4 22 39 22 15 00  Length = 0 BitCount = 117 ID = 2016
 238.256350 1  7E0             Rx   d 8 29 C2 12 E9 22 15 00 99  Length = 0 BitCount = 116 ID = 2016
 238.256590 1  7E0             Rx   d 8 2A F2 10 10 19 22 20 00  Length = 0 BitCount = 120 ID = 2016
 238.256828 1  7E0             Rx   d 8 2B DF 02 38 00 99 F2 10  Length = 0 BitCount = 119 ID = 2016
 238.257065 1  7E0             Rx   d 8 2C 10 99 22 20 00 19 22  Length = 0 BitCount = 118 ID = 2016
 238.257303 1  7E0             Rx   d 8 2D 08 00 01 D2 02 26 19  Length = 0 BitCount = 119 ID = 2016
 238.257539 1  7E0             Rx   d 8 2E F2 10 10 99 22 04 00  Length = 0 BitCount = 118 ID = 2016
 238.257771 1  7E0             Rx   d 8 2F 74 22 99 F2 10 10 99  Length = 0 BitCount = 116 ID = 2016
 238.258011 1  7E0             Rx   d 8 20 F3 10 10 99 F4 10 10  Length = 0 BitCount = 120 ID = 2016
 238.258248 1  7E0             Rx   d 8 21 99 22 20 00 99 33 20  Length = 0 BitCount = 118 ID = 2016
 238.258486 1  7E0             Rx   d 8 22 00 99 44 20 00 19 24  Length = 0 BitCount = 119 ID = 2016
 238.258724 1  7E0             Rx   d 8 23 08 00 19 32 08 00 C2  Length = 0 BitCount = 119 ID = 2016
 238.258958 1  7E0             Rx   d 8 24 14 01 D2 02 36 19 42  Length = 0 BitCount = 117 ID = 2016
 238.259198 1  7E0             Rx   d 8 25 04 00 19 33 04 00 99  Length = 0 BitCount = 120 ID = 2016
 238.259435 1  7E0             Rx   d 8 26 F3 10 10 99 33 20 00  Length = 0 BitCount = 118 ID = 2016
 238.259669 1  7E0             Rx   d 8 27 5F 23 04 80 54 32 3C  Length = 0 BitCount = 117 ID = 2016
 238.259909 1  7E0             Rx   d 8 28 08 19 32 08 00 01 D2  Length = 0 BitCount = 120 ID = 2016
 238.260145 1  7E0             Rx   d 8 29 02 36 19 32 04 00 C2  Length = 0 BitCount = 118 ID = 2016
 238.260377 1  7E0             Rx   d 8 2A 42 01 E4 02 26 74 22  Length = 0 BitCount = 116 ID = 2016
 238.260614 1  7E0             Rx   d 8 2B 91 30 00 36 D9 32 A4  Length = 0 BitCount = 118 ID = 2016
 238.260850 1  7E0             Rx   d 8 2C DC 19 23 1C 00 99 F3  Length = 0 BitCount = 118 ID = 2016
 238.261090 1  7E0             Rx   d 8 2D 10 10 19 32 08 00 A6  Length = 0 BitCount = 120 ID = 2016
 238.261326 1  7E0             Rx   d 8 2E 32 59 22 1C 00 82 02  Length = 0 BitCount = 118 ID = 2016
 238.261564 1  7E0             Rx   d 8 2F 59 F2 10 10 82 02 91  Length = 0 BitCount = 119 ID = 2016
 238.261803 1  7E0             Rx   d 8 20 30 00 36 D9 32 A4 DC  Length = 0 BitCount = 119 ID = 2016
 238.262041 1  7E0             Rx   d 8 21 59 22 18 00 0D 00 80  Length = 0 BitCount = 119 ID = 2016
 238.262281 1  7E0             Rx   d 8 22 04 19 22 1C 00 3F 28  Length = 0 BitCount = 120 ID = 2016
 238.262515 1  7E0             Rx   d 8 23 D9 FE 68 A8 E9 FB 01  Length = 0 BitCount = 117 ID = 2016
 238.262755 1  7E0             Rx   d 8 24 10 68 9C E9 FA 00 10  Length = 0 BitCount = 120 ID = 2016
 238.262988 1  7E0             Rx   d 8 25 E8 BC 6C C1 00 90 91  Length = 0 BitCount = 116 ID = 2016
 238.263228 1  7E0             Rx   d 8 26 C0 03 F8 D9 FF 10 5B  Length = 0 BitCount = 120 ID = 2016
 238.263462 1  7E0             Rx   d 8 27 C8 AF 6D 00 A3 1A 02  Length = 0 BitCount = 117 ID = 2016
 238.263698 1  7E0             Rx   d 8 28 2F 82 02 C8 BC 48 A8  Length = 0 BitCount = 118 ID = 2016
 238.263930 1  7E0             Rx   d 8 29 48 9C 39 FB 01 10 E9  Length = 0 BitCount = 116 ID = 2016
 238.264171 1  7E0             Rx   d 8 2A F2 01 10 19 C2 04 00  Length = 0 BitCount = 120 ID = 2016
 238.264401 1  7E0             Rx   d 8 2B 54 C3 52 22 42 23 39  Length = 0 BitCount = 115 ID = 2016
 238.264641 1  7E0             Rx   d 8 2C FA 00 10 91 00 00 D7  Length = 0 BitCount = 120 ID = 2016
 238.264873 1  7E0             Rx   d 8 2D 74 C3 19 C3 0C 00 7B  Length = 0 BitCount = 116 ID = 2016
 238.265109 1  7E0             Rx   d 8 2E 00 00 95 42 32 7B C0  Length = 0 BitCount = 118 ID = 2016
 238.265342 1  7E0             Rx   d 8 2F 03 E8 D9 DD 2C E7 59  Length = 0 BitCount = 116 ID = 2016
 238.265580 1  7E0             Rx   d 8 20 C2 0C 00 6C C1 1B 09  Length = 0 BitCount = 119 ID = 2016
 238.265816 1  7E0             Rx   d 8 21 10 90 1B 4E 6F EA 40  Length = 0 BitCount = 118 ID = 2016
 238.266054 1  7E0             Rx   d 8 22 DE 60 94 6D 00 AA 08  Length = 0 BitCount = 119 ID = 2016
 238.266298 1  7E0             Rx   d 8 23 DF 02 FD FF 91 00 00  Length = 0 BitCount = 122 ID = 2016
 238.266531 1  7E0             Rx   d 8 24 35 D9 32 28 30 19 22  Length = 0 BitCount = 116 ID = 2016
 238.266767 1  7E0             Rx   d 8 25 1C 00 0F 02 B0 21 53  Length = 0 BitCount = 118 ID = 2016
 238.267003 1  7E0             Rx   d 8 26 82 3D 20 1B 82 4D 20  Length = 0 BitCount = 118 ID = 2016
 238.267231 1  7E0             Rx   d 8 27 42 E2 68 92 C8 92 19  Length = 0 BitCount = 114 ID = 2016
 238.267471 1  7E0             Rx   d 8 28 22 20 00 DF 02 2E 00  Length = 0 BitCount = 120 ID = 2016
 238.267708 1  7E0             Rx   d 8 29 C8 92 99 22 20 00 19  Length = 0 BitCount = 118 ID = 2016
 238.267946 1  7E0             Rx   d 8 2A 22 08 00 01 D2 02 26  Length = 0 BitCount = 119 ID = 2016
 238.268174 1  7E0             Rx   d 8 2B D4 22 54 22 68 92 C8  Length = 0 BitCount = 114 ID = 2016
 238.268402 1  7E0             Rx   d 8 2C 92 C8 93 C8 94 99 22  Length = 0 BitCount = 114 ID = 2016
 238.268638 1  7E0             Rx   d 8 2D 20 00 99 33 20 00 99  Length = 0 BitCount = 118 ID = 2016
 238.268881 1  7E0             Rx   d 8 2E 44 20 00 19 24 08 00  Length = 0 BitCount = 121 ID = 2016
 238.269121 1  7E0             Rx   d 8 2F 19 32 08 00 01 D2 02  Length = 0 BitCount = 120 ID = 2016
 238.269359 1  7E0             Rx   d 8 20 36 19 42 04 00 54 33  Length = 0 BitCount = 119 ID = 2016
 238.269593 1  7E0             Rx   d 8 21 C8 93 99 33 20 00 5F  Length = 0 BitCount = 117 ID = 2016
 238.269829 1  7E0             Rx   d 8 22 23 04 80 54 32 3C 07  Length = 0 BitCount = 118 ID = 2016
 238.270070 1  7E0             Rx   d 8 23 19 32 08 00 01 D2 02  Length = 0 BitCount = 120 ID = 2016
 238.270302 1  7E0             Rx   d 8 24 36 54 32 C2 42 01 E4  Length = 0 BitCount = 116 ID = 2016
 238.270536 1  7E0             Rx   d 8 25 02 26 74 22 82 02 91  Length = 0 BitCount = 117 ID = 2016
 238.270774 1  7E0             Rx   d 8 26 00 00 35 D9 32 28 30  Length = 0 BitCount = 119 ID = 2016
 238.271012 1  7E0             Rx   d 8 27 59 22 18 00 0D 00 80  Length = 0 BitCount = 119 ID = 2016
 238.271243 1  7E0             Rx   d 8 28 04 C8 92 D4 22 E9 22  Length = 0 BitCount = 115 ID = 2016
 238.271477 1  7E0             Rx   d 8 29 16 00 C8 92 19 23 10  Length = 0 BitCount = 117 ID = 2016
 238.271709 1  7E0             Rx   d 8 2A 00 68 A3 C8 92 39 23  Length = 0 BitCount = 116 ID = 2016
 238.271945 1  7E0             Rx   d 8 2B 25 00 91 C0 03 28 D9  Length = 0 BitCount = 118 ID = 2016
 238.272181 1  7E0             Rx   d 8 2C 22 04 5B 01 23 01 26  Length = 0 BitCount = 118 ID = 2016
 238.272414 1  7E0             Rx   d 8 2D 39 23 01 00 C8 92 E9  Length = 0 BitCount = 116 ID = 2016
 238.272648 1  7E0             Rx   d 8 2E F3 00 10 C8 94 D4 22  Length = 0 BitCount = 117 ID = 2016
 238.272884 1  7E0             Rx   d 8 2F D9 23 04 00 E8 B3 6C  Length = 0 BitCount = 118 ID = 2016
 238.273122 1  7E0             Rx   d 8 20 22 59 22 04 00 6D 00  Length = 0 BitCount = 119 ID = 2016
 238.273358 1  7E0             Rx   d 8 21 CF 1C BB 00 00 F8 CD  Length = 0 BitCount = 118 ID = 2016
 238.273603 1  7E0             Rx   d 8 22 CF E2 0F 0D 00 C0 04  Length = 0 BitCount = 122 ID = 2016
 238.273839 1  7E0             Rx   d 8 23 C8 92 99 22 04 00 2D  Length = 0 BitCount = 118 ID = 2016
 238.274083 1  7E0             Rx   d 8 24 02 00 00 0D 00 40 03  Length = 0 BitCount = 122 ID = 2016
 238.274319 1  7E0             Rx   d 8 25 BB D0 03 F8 CD CF E2  Length = 0 BitCount = 118 ID = 2016
 238.274564 1  7E0             Rx   d 8 26 0F 0D 00 C0 04 6D 00  Length = 0 BitCount = 122 ID = 2016
 238.274798 1  7E0             Rx   d 8 27 FD 19 C8 B2 02 2F 19  Length = 0 BitCount = 117 ID = 2016
 238.275036 1  7E0             Rx   d 8 28 23 04 00 54 22 19 24  Length = 0 BitCount = 119 ID = 2016
 238.275268 1  7E0             Rx   d 8 29 0C 00 52 33 42 32 42  Length = 0 BitCount = 116 ID = 2016
 238.275498 1  7E0             Rx   d 8 2A 43 6C 21 74 22 59 23  Length = 0 BitCount = 115 ID = 2016
 238.275739 1  7E0             Rx   d 8 2B 0C 00 19 23 08 00 7F  Length = 0 BitCount = 120 ID = 2016
 238.275977 1  7E0             Rx   d 8 2C 23 04 80 59 22 08 00  Length = 0 BitCount = 119 ID = 2016
 238.276209 1  7E0             Rx   d 8 2D C8 94 6D 00 A9 1C 60  Length = 0 BitCount = 116 ID = 2016
 238.276445 1  7E0             Rx   d 8 2E 94 6D 00 11 08 DF 02  Length = 0 BitCount = 118 ID = 2016
 238.276681 1  7E0             Rx   d 8 2F FD FF C8 92 D4 22 39  Length = 0 BitCount = 118 ID = 2016
 238.276914 1  7E0             Rx   d 8 20 22 15 00 C2 F2 E9 22  Length = 0 BitCount = 116 ID = 2016
 238.277144 1  7E0             Rx   d 8 21 15 00 C8 92 D4 22 39  Length = 0 BitCount = 115 ID = 2016
 238.277376 1  7E0             Rx   d 8 22 22 15 00 F6 2E 91 00  Length = 0 BitCount = 116 ID = 2016
 238.277612 1  7E0             Rx   d 8 23 00 35 D9 32 28 30 19  Length = 0 BitCount = 118 ID = 2016
 238.277844 1  7E0             Rx   d 8 24 22 1C 00 C8 93 19 33  Length = 0 BitCount = 116 ID = 2016
 238.278085 1  7E0             Rx   d 8 25 08 00 0F 32 E0 20 59  Length = 0 BitCount = 120 ID = 2016
 238.278325 1  7E0             Rx   d 8 26 22 1C 00 19 F2 10 10  Length = 0 BitCount = 120 ID = 2016
 238.278565 1  7E0             Rx   d 8 27 DF 02 63 00 99 F2 10  Length = 0 BitCount = 120 ID = 2016
 238.278797 1  7E0             Rx   d 8 28 10 82 12 D4 22 E9 22  Length = 0 BitCount = 116 ID = 2016
 238.279035 1  7E0             Rx   d 8 29 14 00 99 F2 10 10 54  Length = 0 BitCount = 119 ID = 2016
 238.279270 1  7E0             Rx   d 8 2A 2D 6D 00 B9 19 60 D2  Length = 0 BitCount = 117 ID = 2016
 238.279504 1  7E0             Rx   d 8 2B 74 22 99 F2 10 10 D4  Length = 0 BitCount = 117 ID = 2016
 238.279736 1  7E0             Rx   d 8 2C 22 39 22 15 00 C2 12  Length = 0 BitCount = 116 ID = 2016
 238.279968 1  7E0             Rx   d 8 2D E9 22 15 00 99 F2 10  Length = 0 BitCount = 116 ID = 2016
 238.280206 1  7E0             Rx   d 8 2E 10 19 22 20 00 DF 02  Length = 0 BitCount = 119 ID = 2016
 238.280447 1  7E0             Rx   d 8 2F 38 00 99 F2 10 10 99  Length = 0 BitCount = 120 ID = 2016
 238.280689 1  7E0             Rx   d 8 20 22 20 00 19 22 08 00  Length = 0 BitCount = 121 ID = 2016
 238.280927 1  7E0             Rx   d 8 21 01 D2 02 26 19 F2 10  Length = 0 BitCount = 119 ID = 2016
 238.281161 1  7E0             Rx   d 8 22 10 99 22 04 00 74 22  Length = 0 BitCount = 117 ID = 2016
 238.281395 1  7E0             Rx   d 8 23 99 F2 10 10 99 F3 10  Length = 0 BitCount = 117 ID = 2016
 238.281632 1  7E0             Rx   d 8 24 10 99 F4 10 10 99 22  Length = 0 BitCount = 118 ID = 2016
 238.281870 1  7E0             Rx   d 8 25 20 00 99 33 20 00 99  Length = 0 BitCount = 119 ID = 2016
 238.282110 1  7E0             Rx   d 8 26 44 20 00 19 24 08 00  Length = 0 BitCount = 120 ID = 2016
 238.282346 1  7E0             Rx   d 8 27 19 32 08 00 C2 14 01  Length = 0 BitCount = 118 ID = 2016
 238.282582 1  7E0             Rx   d 8 28 D2 02 36 19 42 04 00  Length = 0 BitCount = 118 ID = 2016
 238.282819 1  7E0             Rx   d 8 29 19 33 04 00 99 F3 10  Length = 0 BitCount = 118 ID = 2016
 238.283055 1  7E0             Rx   d 8 2A 10 99 33 20 00 5F 23  Length = 0 BitCount = 118 ID = 2016
 238.283295 1  7E0             Rx   d 8 2B 04 80 54 32 3C 08 19  Length = 0 BitCount = 120 ID = 2016
 238.283535 1  7E0             Rx   d 8 2C 32 08 00 01 D2 02 36  Length = 0 BitCount = 120 ID = 2016
 238.283773 1  7E0             Rx   d 8 2D 19 32 04 00 C2 42 01  Length = 0 BitCount = 119 ID = 2016
 238.284008 1  7E0             Rx   d 8 2E E4 02 26 74 22 91 00  Length = 0 BitCount = 117 ID = 2016
 238.284244 1  7E0             Rx   d 8 2F 00 35 D9 32 28 30 19  Length = 0 BitCount = 118 ID = 2016
 238.284482 1  7E0             Rx   d 8 20 23 1C 00 99 F3 10 10  Length = 0 BitCount = 119 ID = 2016
 238.284716 1  7E0             Rx   d 8 21 19 32 08 00 A6 32 59  Length = 0 BitCount = 117 ID = 2016
 238.284954 1  7E0             Rx   d 8 22 22 1C 00 82 02 59 F2  Length = 0 BitCount = 119 ID = 2016
 238.285195 1  7E0             Rx   d 8 23 10 10 82 02 91 00 00  Length = 0 BitCount = 120 ID = 2016
 238.285427 1  7E0             Rx   d 8 24 35 D9 32 28 30 59 22  Length = 0 BitCount = 116 ID = 2016
 238.285669 1  7E0             Rx   d 8 25 18 00 0D 00 80 04 19  Length = 0 BitCount = 121 ID = 2016
 238.285905 1  7E0             Rx   d 8 26 22 1C 00 3F 28 D9 FE  Length = 0 BitCount = 118 ID = 2016
 238.286139 1  7E0             Rx   d 8 27 68 A8 E9 FB 01 10 68  Length = 0 BitCount = 117 ID = 2016
 238.286374 1  7E0             Rx   d 8 28 9C E9 FA 00 10 E8 BC  Length = 0 BitCount = 117 ID = 2016
 238.286612 1  7E0             Rx   d 8 29 6C C1 00 90 91 C0 03  Length = 0 BitCount = 119 ID = 2016
 238.286852 1  7E0             Rx   d 8 2A F8 D9 FF 10 5B C8 FF  Length = 0 BitCount = 120 ID = 2016
 238.287088 1  7E0             Rx   d 8 2B 6D 00 46 19 02 2F 82  Length = 0 BitCount = 118 ID = 2016
 238.287322 1  7E0             Rx   d 8 2C 02 C8 BC 48 A8 48 9C  Length = 0 BitCount = 117 ID = 2016
 238.287559 1  7E0             Rx   d 8 2D 39 FB 01 10 E9 F2 01  Length = 0 BitCount = 118 ID = 2016
 238.287795 1  7E0             Rx   d 8 2E 10 19 C2 04 00 54 C3  Length = 0 BitCount = 118 ID = 2016
 238.288027 1  7E0             Rx   d 8 2F 52 22 42 23 39 FA 00  Length = 0 BitCount = 116 ID = 2016
 238.288265 1  7E0             Rx   d 8 20 10 91 00 00 D7 74 C3  Length = 0 BitCount = 119 ID = 2016
 238.288505 1  7E0             Rx   d 8 21 19 C3 0C 00 7B 00 00  Length = 0 BitCount = 120 ID = 2016
 238.288742 1  7E0             Rx   d 8 22 94 42 32 7B C0 03 E8  Length = 0 BitCount = 118 ID = 2016
 238.288972 1  7E0             Rx   d 8 23 D9 DD 2C E7 59 C2 0C  Length = 0 BitCount = 115 ID = 2016
 238.289208 1  7E0             Rx   d 8 24 00 6C C1 1B C9 1B 90  Length = 0 BitCount = 118 ID = 2016
 238.289440 1  7E0             Rx   d 8 25 1B 4E 4C EA 40 DE 60  Length = 0 BitCount = 116 ID = 2016
 238.289680 1  7E0             Rx   d 8 26 94 6D 00 4D 07 DF 02  Length = 0 BitCount = 120 ID = 2016
 238.289921 1  7E0             Rx   d 8 27 FD FF 91 00 00 34 D9  Length = 0 BitCount = 120 ID = 2016
 238.290157 1  7E0             Rx   d 8 28 32 24 60 19 22 1C 00  Length = 0 BitCount = 118 ID = 2016
 238.290391 1  7E0             Rx   d 8 29 0F 02 B0 21 53 82 3D  Length = 0 BitCount = 117 ID = 2016
 238.290627 1  7E0             Rx   d 8 2A 20 1B 82 4D 20 42 E2  Length = 0 BitCount = 118 ID = 2016
 238.290861 1  7E0             Rx   d 8 2B 68 92 C8 92 19 22 20  Length = 0 BitCount = 117 ID = 2016
 238.291100 1  7E0             Rx   d 8 2C 00 DF 02 2E 00 C8 92  Length = 0 BitCount = 119 ID = 2016
 238.291338 1  7E0             Rx   d 8 2D 99 22 20 00 19 22 08  Length = 0 BitCount = 119 ID = 2016
 238.291576 1  7E0             Rx   d 8 2E 00 01 D2 02 26 D4 22  Length = 0 BitCount = 119 ID = 2016
 238.291806 1  7E0             Rx   d 8 2F 54 22 68 92 C8 92 C8  Length = 0 BitCount = 115 ID = 2016
 238.292040 1  7E0             Rx   d 8 20 93 C8 94 99 22 20 00  Length = 0 BitCount = 117 ID = 2016
 238.292277 1  7E0             Rx   d 8 21 99 33 20 00 99 44 20  Length = 0 BitCount = 118 ID = 2016
 238.292517 1  7E0             Rx   d 8 22 00 19 24 08 00 19 32  Length = 0 BitCount = 120 ID = 2016
 238.292753 1  7E0             Rx   d 8 23 08 00 01 D2 02 36 19  Length = 0 BitCount = 118 ID = 2016
 238.292987 1  7E0             Rx   d 8 24 42 04 00 54 33 C8 93  Length = 0 BitCount = 117 ID = 2016
 238.293226 1  7E0             Rx   d 8 25 99 33 20 00 5F 23 04  Length = 0 BitCount = 119 ID = 2016
 238.293458 1  7E0             Rx   d 8 26 80 54 32 3C 07 19 32  Length = 0 BitCount = 116 ID = 2016
 238.293694 1  7E0             Rx   d 8 27 08 00 01 D2 02 36 54  Length = 0 BitCount = 118 ID = 2016
 238.293928 1  7E0             Rx   d 8 28 32 C2 42 01 E4 02 26  Length = 0 BitCount = 117 ID = 2016
 238.294166 1  7E0             Rx   d 8 29 74 22 82 02 91 00 00  Length = 0 BitCount = 119 ID = 2016
 238.294397 1  7E0             Rx   d 8 2A 34 D9 32 24 60 59 22  Length = 0 BitCount = 115 ID = 2016
 238.294637 1  7E0             Rx   d 8 2B 18 00 0D 00 80 04 C8  Length = 0 BitCount = 120 ID = 2016
 238.294867 1  7E0             Rx   d 8 2C 92 D4 22 E9 22 16 00  Length = 0 BitCount = 115 ID = 2016
 238.295101 1  7E0             Rx   d 8 2D C8 92 19 23 10 00 68  Length = 0 BitCount = 117 ID = 2016
 238.295331 1  7E0             Rx   d 8 2E A3 C8 92 39 23 25 00  Length = 0 BitCount = 115 ID = 2016
 238.295568 1  7E0             Rx   d 8 2F 91 C0 03 28 D9 22 04  Length = 0 BitCount = 118 ID = 2016
 238.295802 1  7E0             Rx   d 8 20 5B 01 23 01 26 39 23  Length = 0 BitCount = 117 ID = 2016
 238.296040 1  7E0             Rx   d 8 21 01 00 C8 92 E9 F3 00  Length = 0 BitCount = 119 ID = 2016
 238.296268 1  7E0             Rx   d 8 22 10 C8 94 D4 22 D9 23  Length = 0 BitCount = 114 ID = 2016
 238.296502 1  7E0             Rx   d 8 23 04 00 E8 B3 6C 22 59  Length = 0 BitCount = 117 ID = 2016
 238.296741 1  7E0             Rx   d 8 24 22 04 00 6D 00 72 1B  Length = 0 BitCount = 119 ID = 2016
 238.296979 1  7E0             Rx   d 8 25 BB 00 00 F8 CD CF E2  Length = 0 BitCount = 119 ID = 2016
 238.297221 1  7E0             Rx   d 8 26 0F 0D 00 C0 04 C8 92  Length = 0 BitCount = 121 ID = 2016
 238.297461 1  7E0             Rx   d 8 27 99 22 04 00 2D 02 00  Length = 0 BitCount = 120 ID = 2016
 238.297703 1  7E0             Rx   d 8 28 00 0D 00 40 03 BB D0  Length = 0 BitCount = 121 ID = 2016
 238.297946 1  7E0             Rx   d 8 29 03 F8 CD CF E2 0F 0D  Length = 0 BitCount = 121 ID = 2016
 238.298188 1  7E0             Rx   d 8 2A 00 C0 04 6D 00 A0 18  Length = 0 BitCount = 121 ID = 2016
 238.298420 1  7E0             Rx   d 8 2B C8 B2 02 2F 19 23 04  Length = 0 BitCount = 116 ID = 2016
 238.298658 1  7E0             Rx   d 8 2C 00 54 22 19 24 0C 00  Length = 0 BitCount = 119 ID = 2016
 238.298890 1  7E0             Rx   d 8 2D 52 33 42 32 42 43 6C  Length = 0 BitCount = 116 ID = 2016
 238.299125 1  7E0             Rx   d 8 2E 21 74 22 59 23 0C 00  Length = 0 BitCount = 117 ID = 2016
 238.299361 1  7E0             Rx   d 8 2F 19 23 08 00 7F 23 04  Length = 0 BitCount = 118 ID = 2016
 238.299599 1  7E0             Rx   d 8 20 80 59 22 08 00 C8 94  Length = 0 BitCount = 119 ID = 2016
 238.299835 1  7E0             Rx   d 8 21 6D 00 4C 1B 60 94 6D  Length = 0 BitCount = 118 ID = 2016
 238.300079 1  7E0             Rx   d 8 22 00 B4 06 DF 02 FD FF  Length = 0 BitCount = 122 ID = 2016
 238.300308 1  7E0             Rx   d 8 23 C8 92 D4 22 39 22 15  Length = 0 BitCount = 114 ID = 2016
 238.300544 1  7E0             Rx   d 8 24 00 C2 F2 E9 22 15 00  Length = 0 BitCount = 118 ID = 2016
 238.300772 1  7E0             Rx   d 8 25 C8 92 D4 22 39 22 15  Length = 0 BitCount = 114 ID = 2016
 238.301010 1  7E0             Rx   d 8 26 00 F6 2E 91 00 00 34  Length = 0 BitCount = 119 ID = 2016
 238.301242 1  7E0             Rx   d 8 27 D9 32 24 60 19 22 1C  Length = 0 BitCount = 116 ID = 2016
 238.301481 1  7E0             Rx   d 8 28 00 C8 93 19 33 08 00  Length = 0 BitCount = 119 ID = 2016
 238.301715 1  7E0             Rx   d 8 29 0F 32 E0 20 59 22 1C  Length = 0 BitCount = 117 ID = 2016
 238.301955 1  7E0             Rx   d 8 2A 00 19 F2 10 10 DF 02  Length = 0 BitCount = 120 ID = 2016
 238.302191 1  7E0             Rx   d 8 2B 63 00 99 F2 10 10 82  Length = 0 BitCount = 118 ID = 2016
 238.302425 1  7E0             Rx   d 8 2C 12 D4 22 E9 22 14 00  Length = 0 BitCount = 117 ID = 2016
 238.302660 1  7E0             Rx   d 8 2D 99 F2 10 10 54 2D 6D  Length = 0 BitCount = 117 ID = 2016
 238.302898 1  7E0             Rx   d 8 2E 00 5C 18 60 D2 74 22  Length = 0 BitCount = 119 ID = 2016
 238.303132 1  7E0             Rx   d 8 2F 99 F2 10 10 D4 22 39  Length = 0 BitCount = 117 ID = 2016
 238.303368 1  7E0             Rx   d 8 20 22 15 00 C2 12 E9 22  Length = 0 BitCount = 118 ID = 2016
 238.303604 1  7E0             Rx   d 8 21 15 00 99 F2 10 10 19  Length = 0 BitCount = 118 ID = 2016
 238.303847 1  7E0             Rx   d 8 22 22 20 00 DF 02 38 00  Length = 0 BitCount = 121 ID = 2016
 238.304083 1  7E0             Rx   d 8 23 99 F2 10 10 99 22 20  Length = 0 BitCount = 118 ID = 2016
 238.304325 1  7E0             Rx   d 8 24 00 19 22 08 00 01 D2  Length = 0 BitCount = 121 ID = 2016
 238.304561 1  7E0             Rx   d 8 25 02 26 19 F2 10 10 99  Length = 0 BitCount = 118 ID = 2016
 238.304797 1  7E0             Rx   d 8 26 22 04 00 74 22 99 F2  Length = 0 BitCount = 118 ID = 2016
 238.305032 1  7E0             Rx   d 8 27 10 10 99 F3 10 10 99  Length = 0 BitCount = 117 ID = 2016
 238.305268 1  7E0             Rx   d 8 28 F4 10 10 99 22 20 00  Length = 0 BitCount = 118 ID = 2016
 238.305504 1  7E0             Rx   d 8 29 99 33 20 00 99 44 20  Length = 0 BitCount = 118 ID = 2016
 238.305742 1  7E0             Rx   d 8 2A 00 19 24 08 00 19 32  Length = 0 BitCount = 119 ID = 2016
 238.305978 1  7E0             Rx   d 8 2B 08 00 C2 14 01 D2 02  Length = 0 BitCount = 118 ID = 2016
 238.306215 1  7E0             Rx   d 8 2C 36 19 42 04 00 19 33  Length = 0 BitCount = 118 ID = 2016
 238.306453 1  7E0             Rx   d 8 2D 04 00 99 F3 10 10 99  Length = 0 BitCount = 119 ID = 2016
 238.306691 1  7E0             Rx   d 8 2E 33 20 00 5F 23 04 80  Length = 0 BitCount = 119 ID = 2016
 238.306925 1  7E0             Rx   d 8 2F 54 32 3C 08 19 32 08  Length = 0 BitCount = 117 ID = 2016
 238.307165 1  7E0             Rx   d 8 20 00 01 D2 02 36 19 32  Length = 0 BitCount = 120 ID = 2016
 238.307404 1  7E0             Rx   d 8 21 04 00 C2 42 01 E4 02  Length = 0 BitCount = 119 ID = 2016
 238.307638 1  7E0             Rx   d 8 22 26 74 22 91 00 00 34  Length = 0 BitCount = 117 ID = 2016
 238.307868 1  7E0             Rx   d 8 23 D9 32 24 60 19 23 1C  Length = 0 BitCount = 115 ID = 2016
 238.308106 1  7E0             Rx   d 8 24 00 99 F3 10 10 19 32  Length = 0 BitCount = 119 ID = 2016
 238.308340 1  7E0             Rx   d 8 25 08 00 A6 32 59 22 1C  Length = 0 BitCount = 117 ID = 2016
 238.308579 1  7E0             Rx   d 8 26 00 82 02 59 F2 10 10  Length = 0 BitCount = 119 ID = 2016
 238.308819 1  7E0             Rx   d 8 27 82 02 91 00 00 34 D9  Length = 0 BitCount = 120 ID = 2016
 238.309055 1  7E0             Rx   d 8 28 32 24 60 59 22 18 00  Length = 0 BitCount = 118 ID = 2016
 238.309293 1  7E0             Rx   d 8 29 0D 00 80 04 19 22 1C  Length = 0 BitCount = 119 ID = 2016
 238.309529 1  7E0             Rx   d 8 2A 00 3F 28 D9 FE 68 A8  Length = 0 BitCount = 118 ID = 2016
 238.309768 1  7E0             Rx   d 8 2B E9 FB 01 10 68 9C E9  Length = 0 BitCount = 119 ID = 2016
 238.310004 1  7E0             Rx   d 8 2C FA 00 10 E8 BC 6C C1  Length = 0 BitCount = 118 ID = 2016
 238.310242 1  7E0             Rx   d 8 2D 00 90 91 C0 03 F8 8F  Length = 0 BitCount = 119 ID = 2016
 238.310480 1  7E0             Rx   d 8 2E 24 00 F0 D9 FF 30 CB  Length = 0 BitCount = 119 ID = 2016
 238.310715 1  7E0             Rx   d 8 2F 10 FF 91 C0 03 28 D9  Length = 0 BitCount = 117 ID = 2016
 238.310951 1  7E0             Rx   d 8 20 22 20 CB C8 0F 10 22  Length = 0 BitCount = 118 ID = 2016
 238.311183 1  7E0             Rx   d 8 21 4C 20 68 0F 4C F0 B7  Length = 0 BitCount = 116 ID = 2016
 238.311423 1  7E0             Rx   d 8 22 1F 01 FD 68 0F 00 90  Length = 0 BitCount = 120 ID = 2016
 238.311661 1  7E0             Rx   d 8 23 0D 00 40 03 BB D0 03  Length = 0 BitCount = 119 ID = 2016
 238.311904 1  7E0             Rx   d 8 24 F8 CD CF E2 0F 0D 00  Length = 0 BitCount = 121 ID = 2016
 238.312146 1  7E0             Rx   d 8 25 C0 04 91 00 00 F7 D9  Length = 0 BitCount = 121 ID = 2016
 238.312386 1  7E0             Rx   d 8 26 FF FC 76 82 0F 6D 00  Length = 0 BitCount = 120 ID = 2016
 238.312624 1  7E0             Rx   d 8 27 CD 17 C8 BC 39 F8 01  Length = 0 BitCount = 119 ID = 2016
 238.312862 1  7E0             Rx   d 8 28 10 E9 FF 01 10 4C C1  Length = 0 BitCount = 119 ID = 2016
 238.313111 1  7E0             Rx   d 8 29 54 00 00 00 00 00 00  Length = 0 BitCount = 124 ID = 2016
 238.316649 1  7E8             Rx   d 8 02 76 01 00 00 00 00 00  Length = 0 BitCount = 124 ID = 2024
 238.430236 1  7E0             Rx   d 8 1F FF 36 02 C3 5A F2 42  Length = 0 BitCount = 117 ID = 2016
 238.431550 1  7E8             Rx   d 3 30 00 00  Length = 0 BitCount = 77 ID = 2024
 238.434252 1  7E0             Rx   d 8 21 F3 39 F9 00 10 59 C2  Length = 0 BitCount = 119 ID = 2016
 238.434488 1  7E0             Rx   d 8 22 04 00 74 C3 19 C3 0C  Length = 0 BitCount = 118 ID = 2016
 238.434724 1  7E0             Rx   d 8 23 00 82 04 42 3F 68 D2  Length = 0 BitCount = 118 ID = 2016
 238.434962 1  7E0             Rx   d 8 24 6C C3 7B 00 00 F7 1B  Length = 0 BitCount = 119 ID = 2016
 238.435201 1  7E0             Rx   d 8 25 CF E2 F6 68 BF 6D 00  Length = 0 BitCount = 119 ID = 2016
 238.435433 1  7E0             Rx   d 8 26 7B 1A 6D 00 7F 1A 6D  Length = 0 BitCount = 116 ID = 2016
 238.435669 1  7E0             Rx   d 8 27 00 AE 17 C8 B2 02 2F  Length = 0 BitCount = 118 ID = 2016
 238.435913 1  7E0             Rx   d 8 28 82 04 19 22 04 00 54  Length = 0 BitCount = 122 ID = 2016
 238.436143 1  7E0             Rx   d 8 29 23 52 22 42 23 74 23  Length = 0 BitCount = 115 ID = 2016
 238.436376 1  7E0             Rx   d 8 2A 19 23 0C 00 42 32 59  Length = 0 BitCount = 116 ID = 2016
 238.436612 1  7E0             Rx   d 8 2B 22 0C 00 6D 00 73 1A  Length = 0 BitCount = 118 ID = 2016
 238.436842 1  7E0             Rx   d 8 2C C8 B2 48 72 48 A3 6C  Length = 0 BitCount = 115 ID = 2016
 238.437080 1  7E0             Rx   d 8 2D 21 7F 23 04 80 6D FF  Length = 0 BitCount = 119 ID = 2016
 238.437316 1  7E0             Rx   d 8 2E 35 FA 6D 00 94 17 C8  Length = 0 BitCount = 118 ID = 2016
 238.437553 1  7E0             Rx   d 8 2F BF 4C F1 48 03 5A F2  Length = 0 BitCount = 118 ID = 2016
 238.437787 1  7E0             Rx   d 8 20 42 F3 68 03 48 33 42  Length = 0 BitCount = 117 ID = 2016
 238.438029 1  7E0             Rx   d 8 21 3F 68 3F 91 00 00 F7  Length = 0 BitCount = 121 ID = 2016
 238.438263 1  7E0             Rx   d 8 22 D9 FF FC 76 E8 BC E9  Length = 0 BitCount = 117 ID = 2016
 238.438508 1  7E0             Rx   d 8 23 F9 00 10 59 C2 04 00  Length = 0 BitCount = 122 ID = 2016
 238.438748 1  7E0             Rx   d 8 24 E9 F8 01 10 0D 00 40  Length = 0 BitCount = 120 ID = 2016
 238.438998 1  7E0             Rx   d 8 25 02 00 00 00 00 00 00  Length = 0 BitCount = 125 ID = 2016
 238.439240 1  7E0             Rx   d 8 26 00 80 0D 00 40 02 00  Length = 0 BitCount = 121 ID = 2016
 238.439480 1  7E0             Rx   d 8 27 80 0D 00 40 03 BB D0  Length = 0 BitCount = 120 ID = 2016
 238.439723 1  7E0             Rx   d 8 28 03 F8 CD CF E2 0F 0D  Length = 0 BitCount = 121 ID = 2016
 238.439963 1  7E0             Rx   d 8 29 00 C0 04 91 30 00 F6  Length = 0 BitCount = 120 ID = 2016
 238.440203 1  7E0             Rx   d 8 2A D9 FF A4 DC 82 0F 6D  Length = 0 BitCount = 120 ID = 2016
 238.440443 1  7E0             Rx   d 8 2B 00 68 17 C8 BC 39 F8  Length = 0 BitCount = 120 ID = 2016
 238.440679 1  7E0             Rx   d 8 2C 01 10 E9 FF 01 10 4C  Length = 0 BitCount = 118 ID = 2016
 238.440912 1  7E0             Rx   d 8 2D C1 54 C3 5A F2 42 F3  Length = 0 BitCount = 116 ID = 2016
 238.441154 1  7E0             Rx   d 8 2E 39 F9 00 10 59 C2 04  Length = 0 BitCount = 121 ID = 2016
 238.441390 1  7E0             Rx   d 8 2F 00 74 C3 19 C3 0C 00  Length = 0 BitCount = 118 ID = 2016
 238.441624 1  7E0             Rx   d 8 20 82 14 42 3F 68 D2 6C  Length = 0 BitCount = 117 ID = 2016
 238.441856 1  7E0             Rx   d 8 21 C3 7B 30 00 F6 1B 4F  Length = 0 BitCount = 116 ID = 2016
 238.442095 1  7E0             Rx   d 8 22 B9 FC 68 BF 6D 00 16  Length = 0 BitCount = 119 ID = 2016
 238.442331 1  7E0             Rx   d 8 23 1A 6D 00 1A 1A 6D 00  Length = 0 BitCount = 118 ID = 2016
 238.442569 1  7E0             Rx   d 8 24 49 17 C8 B2 02 2F 82  Length = 0 BitCount = 119 ID = 2016
 238.442805 1  7E0             Rx   d 8 25 14 19 22 04 00 54 23  Length = 0 BitCount = 118 ID = 2016
 238.443035 1  7E0             Rx   d 8 26 52 22 42 23 74 23 19  Length = 0 BitCount = 115 ID = 2016
 238.443268 1  7E0             Rx   d 8 27 23 0C 00 42 32 59 22  Length = 0 BitCount = 116 ID = 2016
 238.443506 1  7E0             Rx   d 8 28 0C 00 6D 00 0E 1A C8  Length = 0 BitCount = 119 ID = 2016
 238.443736 1  7E0             Rx   d 8 29 B2 48 72 48 A3 6C 21  Length = 0 BitCount = 115 ID = 2016
 238.443974 1  7E0             Rx   d 8 2A 7F 23 04 80 6D FF 2C  Length = 0 BitCount = 119 ID = 2016
 238.444212 1  7E0             Rx   d 8 2B FB 6D 00 2F 17 C8 BF  Length = 0 BitCount = 119 ID = 2016
 238.444443 1  7E0             Rx   d 8 2C 4C F1 48 03 5A F2 42  Length = 0 BitCount = 115 ID = 2016
 238.444679 1  7E0             Rx   d 8 2D F3 68 03 48 33 42 3F  Length = 0 BitCount = 118 ID = 2016
 238.444919 1  7E0             Rx   d 8 2E 68 3F 91 30 00 F6 D9  Length = 0 BitCount = 120 ID = 2016
 238.445153 1  7E0             Rx   d 8 2F FF A4 DC E8 BC E9 F9  Length = 0 BitCount = 117 ID = 2016
 238.445395 1  7E0             Rx   d 8 20 00 10 59 C2 04 00 E9  Length = 0 BitCount = 121 ID = 2016
 238.445638 1  7E0             Rx   d 8 21 F8 01 10 0D 00 40 02  Length = 0 BitCount = 121 ID = 2016
 238.445890 1  7E0             Rx   d 8 22 00 00 00 00 00 00 00  Length = 0 BitCount = 126 ID = 2016
 238.446132 1  7E0             Rx   d 8 23 80 0D 00 40 02 00 80  Length = 0 BitCount = 121 ID = 2016
 238.446374 1  7E0             Rx   d 8 24 0D 00 40 03 BB D0 03  Length = 0 BitCount = 121 ID = 2016
 238.446616 1  7E0             Rx   d 8 25 F8 CD CF E2 0F 0D 00  Length = 0 BitCount = 121 ID = 2016
 238.446855 1  7E0             Rx   d 8 26 C0 04 91 00 00 F5 D9  Length = 0 BitCount = 119 ID = 2016
 238.447097 1  7E0             Rx   d 8 27 FF 28 30 82 0F 6D 00  Length = 0 BitCount = 121 ID = 2016
 238.447335 1  7E0             Rx   d 8 28 03 17 C8 BC 39 F8 01  Length = 0 BitCount = 119 ID = 2016
 238.447571 1  7E0             Rx   d 8 29 10 E9 FF 01 10 4C C1  Length = 0 BitCount = 118 ID = 2016
 238.447801 1  7E0             Rx   d 8 2A 54 C3 5A F2 42 F3 39  Length = 0 BitCount = 115 ID = 2016
 238.448046 1  7E0             Rx   d 8 2B F9 00 10 59 C2 04 00  Length = 0 BitCount = 122 ID = 2016
 238.448282 1  7E0             Rx   d 8 2C 74 C3 19 C3 0C 00 82  Length = 0 BitCount = 118 ID = 2016
 238.448514 1  7E0             Rx   d 8 2D 24 42 3F 68 D2 6C C3  Length = 0 BitCount = 116 ID = 2016
 238.448748 1  7E0             Rx   d 8 2E 7B 00 00 F5 1B 8F 11  Length = 0 BitCount = 117 ID = 2016
 238.448986 1  7E0             Rx   d 8 2F F0 68 BF 6D 00 B1 19  Length = 0 BitCount = 119 ID = 2016
 238.449223 1  7E0             Rx   d 8 20 6D 00 B5 19 6D 00 E4  Length = 0 BitCount = 118 ID = 2016
 238.449457 1  7E0             Rx   d 8 21 16 C8 B2 02 2F 82 24  Length = 0 BitCount = 117 ID = 2016
 238.449693 1  7E0             Rx   d 8 22 19 22 04 00 54 23 52  Length = 0 BitCount = 118 ID = 2016
 238.449921 1  7E0             Rx   d 8 23 22 42 23 74 23 19 23  Length = 0 BitCount = 114 ID = 2016
 238.450159 1  7E0             Rx   d 8 24 0C 00 42 32 59 22 0C  Length = 0 BitCount = 119 ID = 2016
 238.450392 1  7E0             Rx   d 8 25 00 6D 00 A9 19 C8 B2  Length = 0 BitCount = 116 ID = 2016
 238.450622 1  7E0             Rx   d 8 26 48 72 48 A3 6C 21 7F  Length = 0 BitCount = 115 ID = 2016
 238.450858 1  7E0             Rx   d 8 27 23 04 80 6D FF 24 FC  Length = 0 BitCount = 118 ID = 2016
 238.451094 1  7E0             Rx   d 8 28 6D 00 CA 16 C8 BF 4C  Length = 0 BitCount = 118 ID = 2016
 238.451326 1  7E0             Rx   d 8 29 F1 48 03 5A F2 42 F3  Length = 0 BitCount = 116 ID = 2016
 238.451563 1  7E0             Rx   d 8 2A 68 03 48 33 42 3F 68  Length = 0 BitCount = 118 ID = 2016
 238.451803 1  7E0             Rx   d 8 2B 3F 91 00 00 F5 D9 FF  Length = 0 BitCount = 120 ID = 2016
 238.452037 1  7E0             Rx   d 8 2C 28 30 E8 BC E9 F9 00  Length = 0 BitCount = 117 ID = 2016
 238.452275 1  7E0             Rx   d 8 2D 10 59 C2 04 00 E9 F8  Length = 0 BitCount = 119 ID = 2016
 238.452519 1  7E0             Rx   d 8 2E 01 10 0D 00 40 02 00  Length = 0 BitCount = 122 ID = 2016
 238.452768 1  7E0             Rx   d 8 2F 00 00 00 00 00 00 80  Length = 0 BitCount = 124 ID = 2016
 238.453012 1  7E0             Rx   d 8 20 0D 00 40 02 00 80 0D  Length = 0 BitCount = 122 ID = 2016
 238.453254 1  7E0             Rx   d 8 21 00 40 03 BB D0 03 F8  Length = 0 BitCount = 121 ID = 2016
 238.453494 1  7E0             Rx   d 8 22 CD CF E2 0F 0D 00 C0  Length = 0 BitCount = 120 ID = 2016
 238.453734 1  7E0             Rx   d 8 23 04 91 00 00 F4 D9 FF  Length = 0 BitCount = 120 ID = 2016
 238.453975 1  7E0             Rx   d 8 24 24 60 82 0F 6D 00 9E  Length = 0 BitCount = 120 ID = 2016
 238.454211 1  7E0             Rx   d 8 25 16 C8 BC 39 F8 01 10  Length = 0 BitCount = 118 ID = 2016
 238.454447 1  7E0             Rx   d 8 26 E9 FF 01 10 4C C1 54  Length = 0 BitCount = 118 ID = 2016
 238.454681 1  7E0             Rx   d 8 27 C3 5A F2 42 F3 39 F9  Length = 0 BitCount = 117 ID = 2016
 238.454922 1  7E0             Rx   d 8 28 00 10 59 C2 04 00 74  Length = 0 BitCount = 120 ID = 2016
 238.455158 1  7E0             Rx   d 8 29 C3 19 C3 0C 00 82 34  Length = 0 BitCount = 118 ID = 2016
 238.455392 1  7E0             Rx   d 8 2A 42 3F 68 D2 6C C3 7B  Length = 0 BitCount = 117 ID = 2016
 238.455632 1  7E0             Rx   d 8 2B 00 00 F4 1B 4F 1D F0  Length = 0 BitCount = 120 ID = 2016
 238.455866 1  7E0             Rx   d 8 2C 68 BF 6D 00 4C 19 6D  Length = 0 BitCount = 117 ID = 2016
 238.456105 1  7E0             Rx   d 8 2D 00 50 19 6D 00 7F 16  Length = 0 BitCount = 119 ID = 2016
 238.456341 1  7E0             Rx   d 8 2E C8 B2 02 2F 82 34 19  Length = 0 BitCount = 118 ID = 2016
 238.456575 1  7E0             Rx   d 8 2F 22 04 00 54 23 52 22  Length = 0 BitCount = 117 ID = 2016
 238.456809 1  7E0             Rx   d 8 20 42 23 74 23 19 23 0C  Length = 0 BitCount = 117 ID = 2016
 238.457047 1  7E0             Rx   d 8 21 00 42 32 59 22 0C 00  Length = 0 BitCount = 119 ID = 2016
 238.457280 1  7E0             Rx   d 8 22 6D 00 44 19 C8 B2 48  Length = 0 BitCount = 116 ID = 2016
 238.457510 1  7E0             Rx   d 8 23 72 48 A3 6C 21 7F 23  Length = 0 BitCount = 115 ID = 2016
 238.457746 1  7E0             Rx   d 8 24 04 80 6D FF 1C FD 6D  Length = 0 BitCount = 118 ID = 2016
 238.457978 1  7E0             Rx   d 8 25 00 65 16 C8 BF 4C F1  Length = 0 BitCount = 116 ID = 2016
 238.458210 1  7E0             Rx   d 8 26 48 03 5A F2 42 F3 68  Length = 0 BitCount = 116 ID = 2016
 238.458449 1  7E0             Rx   d 8 27 03 48 33 42 3F 68 3F  Length = 0 BitCount = 119 ID = 2016
 238.458687 1  7E0             Rx   d 8 28 91 00 00 F4 D9 FF 24  Length = 0 BitCount = 119 ID = 2016
 238.458925 1  7E0             Rx   d 8 29 60 E8 BC E9 F9 00 10  Length = 0 BitCount = 119 ID = 2016
 238.459167 1  7E0             Rx   d 8 2A 59 C2 04 00 E9 F8 01  Length = 0 BitCount = 121 ID = 2016
 238.459409 1  7E0             Rx   d 8 2B 10 0D 00 40 02 00 00  Length = 0 BitCount = 121 ID = 2016
 238.459658 1  7E0             Rx   d 8 2C 00 00 00 00 00 80 0D  Length = 0 BitCount = 124 ID = 2016
 238.459902 1  7E0             Rx   d 8 2D 00 40 02 00 80 00 00  Length = 0 BitCount = 122 ID = 2016
 238.460142 1  7E0             Rx   d 8 2E 82 0F 3C 02 24 4F 9F  Length = 0 BitCount = 120 ID = 2016
 238.460382 1  7E0             Rx   d 8 2F 04 FF FF 00 90 B9 4F  Length = 0 BitCount = 120 ID = 2016
 238.460626 1  7E0             Rx   d 8 20 10 00 CC 40 FF 4F 6F  Length = 0 BitCount = 122 ID = 2016
 238.460863 1  7E0             Rx   d 8 21 80 91 00 00 2C D9 22  Length = 0 BitCount = 118 ID = 2016
 238.461099 1  7E0             Rx   d 8 22 E8 B0 90 22 DC 02 00  Length = 0 BitCount = 118 ID = 2016
 238.461343 1  7E0             Rx   d 8 23 00 1D 00 08 00 1D 00  Length = 0 BitCount = 122 ID = 2016
 238.461587 1  7E0             Rx   d 8 24 1D 00 1D 00 30 00 1D  Length = 0 BitCount = 122 ID = 2016
 238.461825 1  7E0             Rx   d 8 25 00 45 00 91 00 00 47  Length = 0 BitCount = 119 ID = 2016
 238.462060 1  7E0             Rx   d 8 26 D9 44 FC 76 3B 80 05  Length = 0 BitCount = 117 ID = 2016
 238.462306 1  7E0             Rx   d 8 27 40 6D FF E0 FF 91 00  Length = 0 BitCount = 123 ID = 2016
 238.462544 1  7E0             Rx   d 8 28 00 47 D9 44 14 77 3B  Length = 0 BitCount = 119 ID = 2016
 238.462786 1  7E0             Rx   d 8 29 80 13 40 6D FF D8 FF  Length = 0 BitCount = 121 ID = 2016
 238.463022 1  7E0             Rx   d 8 2A 91 00 00 47 D9 44 D4  Length = 0 BitCount = 118 ID = 2016
 238.463257 1  7E0             Rx   d 8 2B 96 3B 00 38 40 3C 43  Length = 0 BitCount = 117 ID = 2016
 238.463493 1  7E0             Rx   d 8 2C 91 30 00 46 D9 44 A4  Length = 0 BitCount = 118 ID = 2016
 238.463729 1  7E0             Rx   d 8 2D DC 3B 80 05 40 6D FF  Length = 0 BitCount = 118 ID = 2016
 238.463969 1  7E0             Rx   d 8 2E C9 FF 91 30 00 46 D9  Length = 0 BitCount = 120 ID = 2016
 238.464207 1  7E0             Rx   d 8 2F 44 8C FC 3B 00 15 40  Length = 0 BitCount = 119 ID = 2016
 238.464454 1  7E0             Rx   d 8 20 6D FF C1 FF 91 30 00  Length = 0 BitCount = 123 ID = 2016
 238.464682 1  7E0             Rx   d 8 21 46 D9 44 BC EC 3C 2C  Length = 0 BitCount = 114 ID = 2016
 238.464920 1  7E0             Rx   d 8 22 91 00 00 45 D9 44 28  Length = 0 BitCount = 119 ID = 2016
 238.465160 1  7E0             Rx   d 8 23 30 3B 80 05 40 6D FF  Length = 0 BitCount = 120 ID = 2016
 238.465398 1  7E0             Rx   d 8 24 B4 FF 91 00 00 45 D9  Length = 0 BitCount = 119 ID = 2016
 238.465639 1  7E0             Rx   d 8 25 44 20 50 3B 80 16 40  Length = 0 BitCount = 120 ID = 2016
 238.465881 1  7E0             Rx   d 8 26 6D FF AC FF 91 00 00  Length = 0 BitCount = 121 ID = 2016
 238.466119 1  7E0             Rx   d 8 27 45 D9 44 00 50 3B 00  Length = 0 BitCount = 119 ID = 2016
 238.466361 1  7E0             Rx   d 8 28 02 40 3C 17 91 00 00  Length = 0 BitCount = 121 ID = 2016
 238.466595 1  7E0             Rx   d 8 29 44 D9 44 24 60 3B 80  Length = 0 BitCount = 117 ID = 2016
 238.466836 1  7E0             Rx   d 8 2A 05 40 6D FF 9D FF 91  Length = 0 BitCount = 120 ID = 2016
 238.467076 1  7E0             Rx   d 8 2B 00 00 44 D9 44 0C 80  Length = 0 BitCount = 120 ID = 2016
 238.467314 1  7E0             Rx   d 8 2C 3B 00 15 40 6D FF 95  Length = 0 BitCount = 119 ID = 2016
 238.467552 1  7E0             Rx   d 8 2D FF 91 00 00 44 D9 44  Length = 0 BitCount = 119 ID = 2016
 238.467792 1  7E0             Rx   d 8 2E 3C 70 3B 00 01 40 82  Length = 0 BitCount = 120 ID = 2016
 238.468031 1  7E0             Rx   d 8 2F 0F 6D FF 8C FF 68 7F  Length = 0 BitCount = 119 ID = 2016
 238.468271 1  7E0             Rx   d 8 20 68 AF 82 1F E9 FF 00  Length = 0 BitCount = 120 ID = 2016
 238.468511 1  7E0             Rx   d 8 21 10 82 0F E9 FF 01 10  Length = 0 BitCount = 120 ID = 2016
 238.468749 1  7E0             Rx   d 8 22 82 0F 68 6F 0D 00 80  Length = 0 BitCount = 119 ID = 2016
 238.468983 1  7E0             Rx   d 8 23 04 6D 00 C3 15 D9 F2  Length = 0 BitCount = 117 ID = 2016
 238.469220 1  7E0             Rx   d 8 24 30 00 E8 B2 59 FF 04  Length = 0 BitCount = 118 ID = 2016
 238.469458 1  7E0             Rx   d 8 25 10 59 FF 08 10 68 D2  Length = 0 BitCount = 119 ID = 2016
 238.469694 1  7E0             Rx   d 8 26 6D 00 94 18 02 28 02  Length = 0 BitCount = 118 ID = 2016
 238.469928 1  7E0             Rx   d 8 27 3F 6D 00 96 18 0B 28  Length = 0 BitCount = 117 ID = 2016
 238.470166 1  7E0             Rx   d 8 28 80 20 52 33 59 F2 04  Length = 0 BitCount = 119 ID = 2016
 238.470407 1  7E0             Rx   d 8 29 10 59 F3 08 10 00 90  Length = 0 BitCount = 120 ID = 2016
 238.470649 1  7E0             Rx   d 8 2A 82 0F 91 00 00 F7 E9  Length = 0 BitCount = 121 ID = 2016
 238.470893 1  7E0             Rx   d 8 2B FF 74 27 82 0F 91 00  Length = 0 BitCount = 122 ID = 2016
 238.471133 1  7E0             Rx   d 8 2C 00 F7 59 FF 70 27 0D  Length = 0 BitCount = 120 ID = 2016
 238.471375 1  7E0             Rx   d 8 2D 00 80 04 91 00 00 47  Length = 0 BitCount = 121 ID = 2016
 238.471610 1  7E0             Rx   d 8 2E D9 44 2C D7 3B 00 04  Length = 0 BitCount = 117 ID = 2016
 238.471848 1  7E0             Rx   d 8 2F 40 6D FF 54 FF 91 00  Length = 0 BitCount = 119 ID = 2016
 238.472082 1  7E0             Rx   d 8 20 00 47 D9 44 3C C7 3B  Length = 0 BitCount = 117 ID = 2016
 238.472320 1  7E0             Rx   d 8 21 00 03 40 6D FF 4C FF  Length = 0 BitCount = 119 ID = 2016
 238.472556 1  7E0             Rx   d 8 22 91 00 00 47 D9 44 30  Length = 0 BitCount = 118 ID = 2016
 238.472795 1  7E0             Rx   d 8 23 C7 3B C0 00 40 6D FF  Length = 0 BitCount = 119 ID = 2016
 238.473033 1  7E0             Rx   d 8 24 44 FF 91 00 00 47 D9  Length = 0 BitCount = 119 ID = 2016
 238.473271 1  7E0             Rx   d 8 25 44 0C C7 3B 40 02 40  Length = 0 BitCount = 119 ID = 2016
 238.473509 1  7E0             Rx   d 8 26 6D FF 3C FF 91 00 00  Length = 0 BitCount = 119 ID = 2016
 238.473743 1  7E0             Rx   d 8 27 47 D9 44 68 27 82 54  Length = 0 BitCount = 117 ID = 2016
 238.473980 1  7E0             Rx   d 8 28 7B 00 00 F7 6D FF 33  Length = 0 BitCount = 118 ID = 2016
 238.474214 1  7E0             Rx   d 8 29 FF 1B CF 40 F7 91 00  Length = 0 BitCount = 117 ID = 2016
 238.474450 1  7E0             Rx   d 8 2A 00 27 D9 2F 2C E7 68  Length = 0 BitCount = 118 ID = 2016
 238.474682 1  7E0             Rx   d 8 2B 1F 59 2F 2C E7 7B 00  Length = 0 BitCount = 116 ID = 2016
 238.474920 1  7E0             Rx   d 8 2C 00 F7 1B CF 41 F7 68  Length = 0 BitCount = 119 ID = 2016
 238.475159 1  7E0             Rx   d 8 2D 3F 68 2F 7B 00 00 F7  Length = 0 BitCount = 119 ID = 2016
 238.475389 1  7E0             Rx   d 8 2E 1B 4F 42 F7 68 5F 68  Length = 0 BitCount = 115 ID = 2016
 238.475627 1  7E0             Rx   d 8 2F 4F 7B 00 00 F7 1B 0F  Length = 0 BitCount = 119 ID = 2016
 238.475861 1  7E0             Rx   d 8 20 43 F7 68 7F 68 6F 7B  Length = 0 BitCount = 117 ID = 2016
 238.476097 1  7E0             Rx   d 8 21 00 00 F7 1B 4F 44 F7  Length = 0 BitCount = 118 ID = 2016
 238.476334 1  7E0             Rx   d 8 22 68 9F 68 8F 7B 00 00  Length = 0 BitCount = 118 ID = 2016
 238.476566 1  7E0             Rx   d 8 23 F7 1B CF 44 F7 68 BF  Length = 0 BitCount = 116 ID = 2016
 238.476800 1  7E0             Rx   d 8 24 68 AF 7B 00 00 F7 1B  Length = 0 BitCount = 117 ID = 2016
 238.477032 1  7E0             Rx   d 8 25 4F 45 F7 68 DF 68 CF  Length = 0 BitCount = 116 ID = 2016
 238.477266 1  7E0             Rx   d 8 26 7B 00 00 F7 1B 0F 46  Length = 0 BitCount = 117 ID = 2016
 238.477503 1  7E0             Rx   d 8 27 F7 68 FF 68 EF 7B 00  Length = 0 BitCount = 118 ID = 2016
 238.477735 1  7E0             Rx   d 8 28 00 F7 1B 8F 46 F7 59  Length = 0 BitCount = 116 ID = 2016
 238.477983 1  7E0             Rx   d 8 29 FF 04 10 59 FF 00 10  Length = 0 BitCount = 124 ID = 2016
 238.478219 1  7E0             Rx   d 8 2A 7B 00 00 F7 1B 0F 47  Length = 0 BitCount = 118 ID = 2016
 238.478460 1  7E0             Rx   d 8 2B F7 59 FF 0C 10 59 FF  Length = 0 BitCount = 120 ID = 2016
 238.478704 1  7E0             Rx   d 8 2C 08 10 7B 00 00 F7 1B  Length = 0 BitCount = 122 ID = 2016
 238.478940 1  7E0             Rx   d 8 2D 8F 47 F7 59 FF 14 10  Length = 0 BitCount = 118 ID = 2016
 238.479182 1  7E0             Rx   d 8 2E 59 FF 10 10 7B 00 00  Length = 0 BitCount = 121 ID = 2016
 238.479418 1  7E0             Rx   d 8 2F F7 1B CF 49 F7 59 FF  Length = 0 BitCount = 118 ID = 2016
 238.479663 1  7E0             Rx   d 8 20 1C 10 59 FF 18 10 00  Length = 0 BitCount = 122 ID = 2016
 238.479901 1  7E0             Rx   d 8 21 90 00 90 91 00 00 27  Length = 0 BitCount = 119 ID = 2016
 238.480133 1  7E0             Rx   d 8 22 39 2F 48 97 40 4F 40  Length = 0 BitCount = 116 ID = 2016
 238.480373 1  7E0             Rx   d 8 23 5C 1E 24 DF 3F 21 80  Length = 0 BitCount = 120 ID = 2016
 238.480609 1  7E0             Rx   d 8 24 3C 14 B9 4F 10 00 5E  Length = 0 BitCount = 118 ID = 2016
 238.480844 1  7E0             Rx   d 8 25 19 91 C0 03 48 D9 44  Length = 0 BitCount = 117 ID = 2016
 238.481078 1  7E0             Rx   d 8 26 9C 6A 40 F5 40 C6 6D  Length = 0 BitCount = 117 ID = 2016
 238.481314 1  7E0             Rx   d 8 27 00 F5 17 B9 FF 10 00  Length = 0 BitCount = 118 ID = 2016
 238.481546 1  7E0             Rx   d 8 28 91 C0 03 48 D9 44 DC  Length = 0 BitCount = 116 ID = 2016
 238.481780 1  7E0             Rx   d 8 29 0A EE 0D 3C 08 B9 4F  Length = 0 BitCount = 117 ID = 2016
 238.482019 1  7E0             Rx   d 8 2A 10 00 EE 09 91 C0 03  Length = 0 BitCount = 119 ID = 2016
 238.482251 1  7E0             Rx   d 8 2B 48 D9 44 B4 FA 40 F5  Length = 0 BitCount = 116 ID = 2016
 238.482485 1  7E0             Rx   d 8 2C 40 C6 1D 00 E2 17 00  Length = 0 BitCount = 117 ID = 2016
 238.482721 1  7E0             Rx   d 8 2D 90 4D C0 E1 FF 7B C0  Length = 0 BitCount = 118 ID = 2016
 238.482955 1  7E0             Rx   d 8 2E 03 28 1B 02 15 2B 13  Length = 0 BitCount = 117 ID = 2016
 238.483194 1  7E0             Rx   d 8 2F 4F 21 32 60 3F C8 0F  Length = 0 BitCount = 119 ID = 2016
 238.483430 1  7E0             Rx   d 8 20 4D C0 E2 8F 0D 00 40  Length = 0 BitCount = 118 ID = 2016
 238.483666 1  7E0             Rx   d 8 21 03 BB D0 03 F8 CD CF  Length = 0 BitCount = 118 ID = 2016
 238.483906 1  7E0             Rx   d 8 22 E2 0F 0D 00 C0 04 39  Length = 0 BitCount = 120 ID = 2016
 238.484144 1  7E0             Rx   d 8 23 FF 0C 10 EE 13 82 12  Length = 0 BitCount = 119 ID = 2016
 238.484381 1  7E0             Rx   d 8 24 54 A3 39 F9 00 10 E9  Length = 0 BitCount = 118 ID = 2016
 238.484621 1  7E0             Rx   d 8 25 F2 0C 10 28 85 68 36  Length = 0 BitCount = 120 ID = 2016
 238.484859 1  7E0             Rx   d 8 26 68 47 68 53 E9 F2 00  Length = 0 BitCount = 119 ID = 2016
 238.485097 1  7E0             Rx   d 8 27 10 6D 00 C2 17 E9 F9  Length = 0 BitCount = 119 ID = 2016
 238.485333 1  7E0             Rx   d 8 28 00 10 E9 FF 0C 10 CD  Length = 0 BitCount = 118 ID = 2016
 238.485574 1  7E0             Rx   d 8 29 C8 E2 0F 0D 00 C0 04  Length = 0 BitCount = 120 ID = 2016
 238.485820 1  7E0             Rx   d 8 2A 00 90 00 00 20 08 40  Length = 0 BitCount = 123 ID = 2016
 238.486054 1  7E0             Rx   d 8 2B 4F 4D C0 E1 FF 7B C0  Length = 0 BitCount = 117 ID = 2016
