date Fri Jul 3 16:59:49.140 2026
base dec  timestamps absolute
internal events logged
// version 19.5.0
// Measurement UUID: a6aed8df-61f8-4428-bf32-8eacd708b707
Begin TriggerBlock Fri Jul 3 16:59:49.140 2026
   0.000000 Start of measurement
   0.010328 CAN 1 Status:chip status error active
   1.008725 CAN 1 Status:chip status error active
   2.007119 CAN 1 Status:chip status error active
   3.005516 CAN 1 Status:chip status error active
   4.003915 CAN 1 Status:chip status error active
   5.002314 CAN 1 Status:chip status error active
   6.000712 CAN 1 Status:chip status error active
   7.024710 CAN 1 Status:chip status error active
   8.023107 CAN 1 Status:chip status error active
   9.021503 CAN 1 Status:chip status error active
  10.019900 CAN 1 Status:chip status error active
  11.018297 CAN 1 Status:chip status error active
  12.016694 CAN 1 Status:chip status error active
  13.015091 CAN 1 Status:chip status error active
  14.013488 CAN 1 Status:chip status error active
  15.011886 CAN 1 Status:chip status error active
  16.010283 CAN 1 Status:chip status error active
  16.055845 1  2016            Rx   d 8   2  62   0   0   0   0   0   0  Length = 241891 BitCount = 125 ID = 2016
  16.063609 1  2024            Rx   d 8   2 126   0   0   0   0   0   0  Length = 241891 BitCount = 125 ID = 2024
  17.008681 CAN 1 Status:chip status error active
  18.007078 CAN 1 Status:chip status error active
  19.005475 CAN 1 Status:chip status error active
  19.315841 1  1859            Rx   d 8   2  62   0   0   0   0   0   0  Length = 237891 BitCount = 123 ID = 1859
  20.003872 CAN 1 Status:chip status error active
  21.002268 CAN 1 Status:chip status error active
  22.026265 CAN 1 Status:chip status error active
  23.024662 CAN 1 Status:chip status error active
  24.023060 CAN 1 Status:chip status error active
  24.664622 1  ErrorFrame	Flags = 65534	CodeExt = 8362	Code = 130	ID = 2018	DLC = 4	Position = 32	Length = 67375	Data = 41  0  0  0
  24.664624 CAN 1 Status:chip status error active  - TxErr: 0 RxErr: 1
  24.664636 CAN 1 Status:chip status error active  - TxErr: 0 RxErr: 9
  24.664727 1  ErrorFrame	Flags = 65534	CodeExt = 8362	Code = 130	ID = 2018	DLC = 4	Position = 32	Length = 67375	Data = 41  0  0  0
  24.664728 CAN 1 Status:chip status error active  - TxErr: 0 RxErr: 10
  24.664740 CAN 1 Status:chip status error active  - TxErr: 0 RxErr: 18
  24.664831 1  ErrorFrame	Flags = 65534	CodeExt = 8362	Code = 130	ID = 2018	DLC = 4	Position = 32	Length = 67362	Data = 41  0  0  0
  24.664833 CAN 1 Status:chip status error active  - TxErr: 0 RxErr: 19
  24.664845 CAN 1 Status:chip status error active  - TxErr: 0 RxErr: 27
  24.664936 1  ErrorFrame	Flags = 65534	CodeExt = 8362	Code = 130	ID = 2018	DLC = 4	Position = 32	Length = 67362	Data = 41  0  0  0
  24.664937 CAN 1 Status:chip status error active  - TxErr: 0 RxErr: 28
  24.664949 CAN 1 Status:chip status error active  - TxErr: 0 RxErr: 36
  24.665040 1  ErrorFrame	Flags = 65534	CodeExt = 8362	Code = 130	ID = 2018	DLC = 4	Position = 32	Length = 67388	Data = 41  0  0  0
  24.665042 CAN 1 Status:chip status error active  - TxErr: 0 RxErr: 37
  24.665054 CAN 1 Status:chip status error active  - TxErr: 0 RxErr: 45
  24.665145 1  ErrorFrame	Flags = 65534	CodeExt = 8362	Code = 130	ID = 2018	DLC = 4	Position = 32	Length = 67362	Data = 41  0  0  0
  24.665146 CAN 1 Status:chip status error active  - TxErr: 0 RxErr: 46
  24.665158 CAN 1 Status:chip status error active  - TxErr: 0 RxErr: 54
  24.665249 1  ErrorFrame	Flags = 65534	CodeExt = 8362	Code = 130	ID = 2018	DLC = 4	Position = 32	Length = 67388	Data = 41  0  0  0
  24.665251 CAN 1 Status:chip status error active  - TxErr: 0 RxErr: 55
  24.665263 CAN 1 Status:chip status error active  - TxErr: 0 RxErr: 63
  24.665354 1  ErrorFrame	Flags = 65534	CodeExt = 8362	Code = 130	ID = 2018	DLC = 4	Position = 32	Length = 67362	Data = 41  0  0  0
  24.665355 CAN 1 Status:chip status error active  - TxErr: 0 RxErr: 64
  24.665367 CAN 1 Status:chip status error active  - TxErr: 0 RxErr: 72
  24.665458 1  ErrorFrame	Flags = 65534	CodeExt = 8362	Code = 130	ID = 2018	DLC = 4	Position = 32	Length = 67388	Data = 41  0  0  0
  24.665460 CAN 1 Status:chip status error active  - TxErr: 0 RxErr: 73
  24.665472 CAN 1 Status:chip status error active  - TxErr: 0 RxErr: 81
  24.665563 1  ErrorFrame	Flags = 65534	CodeExt = 8362	Code = 130	ID = 2018	DLC = 4	Position = 32	Length = 67375	Data = 41  0  0  0
  24.665564 CAN 1 Status:chip status error active  - TxErr: 0 RxErr: 82
  24.665576 CAN 1 Status:chip status error active  - TxErr: 0 RxErr: 90
  24.665667 1  ErrorFrame	Flags = 65534	CodeExt = 8362	Code = 130	ID = 2018	DLC = 4	Position = 32	Length = 67362	Data = 41  0  0  0
  24.665669 CAN 1 Status:chip status error active  - TxErr: 0 RxErr: 91
  24.665681 CAN 1 Status:chip status warning level - TxErr: 0 RxErr: 99
  24.665772 1  ErrorFrame	Flags = 65534	CodeExt = 8362	Code = 130	ID = 2018	DLC = 4	Position = 32	Length = 67375	Data = 41  0  0  0
  24.665773 CAN 1 Status:chip status warning level - TxErr: 0 RxErr: 100
  24.665785 CAN 1 Status:chip status warning level - TxErr: 0 RxErr: 108
  24.665876 1  ErrorFrame	Flags = 65534	CodeExt = 8362	Code = 130	ID = 2018	DLC = 4	Position = 32	Length = 67362	Data = 41  0  0  0
  24.665878 CAN 1 Status:chip status warning level - TxErr: 0 RxErr: 109
  24.665890 CAN 1 Status:chip status warning level - TxErr: 0 RxErr: 117
  24.665981 1  ErrorFrame	Flags = 65534	CodeExt = 8362	Code = 130	ID = 2018	DLC = 4	Position = 32	Length = 67375	Data = 41  0  0  0
  24.665982 CAN 1 Status:chip status warning level - TxErr: 0 RxErr: 118
  24.665994 CAN 1 Status:chip status warning level - TxErr: 0 RxErr: 126
  24.666085 1  ErrorFrame	Flags = 65534	CodeExt = 8362	Code = 130	ID = 2018	DLC = 4	Position = 32	Length = 67362	Data = 41  0  0  0
  24.666087 CAN 1 Status:chip status warning level - TxErr: 0 RxErr: 127
  24.666099 CAN 1 Status:chip status error passive - TxErr: 0 RxErr: 128
  24.666190 1  ErrorFrame	Flags = 65534	CodeExt = 8362	Code = 130	ID = 2018	DLC = 4	Position = 32	Length = 67375	Data = 41  0  0  0
  25.021457 CAN 1 Status:chip status error passive - TxErr: 0 RxErr: 128
  26.019854 CAN 1 Status:chip status error passive - TxErr: 0 RxErr: 128
  27.018251 CAN 1 Status:chip status error passive - TxErr: 0 RxErr: 128
  28.016648 CAN 1 Status:chip status error passive - TxErr: 0 RxErr: 128
  29.015046 CAN 1 Status:chip status error passive - TxErr: 0 RxErr: 128
  30.013443 CAN 1 Status:chip status error passive - TxErr: 0 RxErr: 128
  31.011840 CAN 1 Status:chip status error passive - TxErr: 0 RxErr: 128
  32.010237 CAN 1 Status:chip status error passive - TxErr: 0 RxErr: 128
  33.008634 CAN 1 Status:chip status error passive - TxErr: 0 RxErr: 128
  34.007031 CAN 1 Status:chip status error passive - TxErr: 0 RxErr: 128
  35.005428 CAN 1 Status:chip status error passive - TxErr: 0 RxErr: 128
  36.003825 CAN 1 Status:chip status error passive - TxErr: 0 RxErr: 128
  37.002223 CAN 1 Status:chip status error passive - TxErr: 0 RxErr: 128
  37.911768 CAN 1 Status:chip status warning level - TxErr: 0 RxErr: 127
  37.911782 1  2016            Rx   d 8   2  16   3   0   0   0   0   0  Length = 241892 BitCount = 125 ID = 2016
  37.924100 CAN 1 Status:chip status warning level - TxErr: 0 RxErr: 126
  37.924114 1  2024            Rx   d 8   6  80   3   0  50   1 234   0  Length = 233892 BitCount = 121 ID = 2024
  37.938758 CAN 1 Status:chip status warning level - TxErr: 0 RxErr: 125
  37.938773 1  2016            Rx   d 8   2  39   1   0   0   0   0   0  Length = 237891 BitCount = 123 ID = 2016
  37.943586 CAN 1 Status:chip status warning level - TxErr: 0 RxErr: 124
  37.943601 1  2024            Rx   d 8   6 103   1 109 167  76 216   0  Length = 225891 BitCount = 117 ID = 2024
  37.955747 CAN 1 Status:chip status warning level - TxErr: 0 RxErr: 123
  37.955761 1  2016            Rx   d 8   6  39   2  40 100  53 108   0  Length = 227892 BitCount = 118 ID = 2016
  37.963635 CAN 1 Status:chip status warning level - TxErr: 0 RxErr: 122
  37.963649 1  2024            Rx   d 8   2 103   2   0   0   0   0   0  Length = 237892 BitCount = 123 ID = 2024
  37.974767 CAN 1 Status:chip status warning level - TxErr: 0 RxErr: 121
  37.974782 1  2016            Rx   d 8   3  34 241 129   0   0   0   0  Length = 233892 BitCount = 121 ID = 2016
  37.985533 CAN 1 Status:chip status warning level - TxErr: 0 RxErr: 120
  37.985548 1  2024            Rx   d 8  16  27  98 241 129  77  68  49  Length = 223883 BitCount = 116 ID = 2024
  37.987817 CAN 1 Status:chip status warning level - TxErr: 0 RxErr: 119
  37.987832 1  2016            Rx   d 8  48   0   0   0   0   0   0   0  Length = 243891 BitCount = 126 ID = 2016
  37.994483 CAN 1 Status:chip status warning level - TxErr: 0 RxErr: 118
  37.994498 1  2024            Rx   d 8  33  67  83  48  50  56  95  80  Length = 223892 BitCount = 116 ID = 2024
  37.996497 CAN 1 Status:chip status warning level - TxErr: 0 RxErr: 117
  37.996512 1  2024            Rx   d 8  34  50  56  55  50  95  52  83  Length = 223892 BitCount = 116 ID = 2024
  37.998729 CAN 1 Status:chip status warning level - TxErr: 0 RxErr: 116
  37.998744 1  2024            Rx   d 8  35  67  82  95  67  83  48  49  Length = 223891 BitCount = 116 ID = 2024
  38.000629 CAN 1 Status:chip status warning level - TxErr: 0 RxErr: 116
  38.009774 CAN 1 Status:chip status warning level - TxErr: 0 RxErr: 115
  38.009789 1  2016            Rx   d 8   3  34 241 130   0   0   0   0  Length = 233891 BitCount = 121 ID = 2016
  38.024070 CAN 1 Status:chip status warning level - TxErr: 0 RxErr: 114
  38.024085 1  2024            Rx   d 8  16  19  98 241 130  65  49  50  Length = 225892 BitCount = 117 ID = 2024
  38.026816 CAN 1 Status:chip status warning level - TxErr: 0 RxErr: 113
  38.026831 1  2016            Rx   d 8  48   0   0   0   0   0   0   0  Length = 243891 BitCount = 126 ID = 2016
  38.028484 CAN 1 Status:chip status warning level - TxErr: 0 RxErr: 112
  38.028499 1  2024            Rx   d 8  33  51  52  53  54  55  56  57  Length = 221892 BitCount = 115 ID = 2024
  38.034982 CAN 1 Status:chip status warning level - TxErr: 0 RxErr: 111
  38.034997 1  2024            Rx   d 8  34  32  32  32  32  32  32   0  Length = 233892 BitCount = 121 ID = 2024
  38.053793 CAN 1 Status:chip status warning level - TxErr: 0 RxErr: 110
  38.053807 1  2016            Rx   d 8   3  34 241 128   0   0   0   0  Length = 235891 BitCount = 122 ID = 2016
  38.063621 CAN 1 Status:chip status warning level - TxErr: 0 RxErr: 109
  38.063635 1  2024            Rx   d 8  16  53  98 241 128  80  86  69  Length = 227891 BitCount = 118 ID = 2024
  38.066797 CAN 1 Status:chip status warning level - TxErr: 0 RxErr: 108
  38.066812 1  2016            Rx   d 8  48   0   0   0   0   0   0   0  Length = 243891 BitCount = 126 ID = 2016
  38.068647 CAN 1 Status:chip status warning level - TxErr: 0 RxErr: 107
  38.068662 1  2024            Rx   d 8  33  82  58  67  66  95  73  70  Length = 223891 BitCount = 116 ID = 2024
  38.074731 CAN 1 Status:chip status warning level - TxErr: 0 RxErr: 106
  38.074746 1  2024            Rx   d 8  34  88  52  80  95  83  77  71  Length = 225892 BitCount = 117 ID = 2024
  38.076517 CAN 1 Status:chip status warning level - TxErr: 0 RxErr: 105
  38.076532 1  2024            Rx   d 8  35  82  95  48  48  48  95  51  Length = 231892 BitCount = 120 ID = 2024
  38.078497 CAN 1 Status:chip status warning level - TxErr: 0 RxErr: 104
  38.078512 1  2024            Rx   d 8  36  46  49  57  46  48  49  95  Length = 223892 BitCount = 116 ID = 2024
  38.085061 CAN 1 Status:chip status warning level - TxErr: 0 RxErr: 103
  38.085076 1  2024            Rx   d 8  37  77  68  49  67  83  48  50  Length = 223892 BitCount = 116 ID = 2024
  38.086511 CAN 1 Status:chip status warning level - TxErr: 0 RxErr: 102
  38.086526 1  2024            Rx   d 8  38  56  59  48  32  32  32  32  Length = 231892 BitCount = 120 ID = 2024
  38.088513 CAN 1 Status:chip status warning level - TxErr: 0 RxErr: 101
  38.088528 1  2024            Rx   d 8  39  32  32  32  32  32   0   0  Length = 237892 BitCount = 123 ID = 2024
  39.024627 CAN 1 Status:chip status warning level - TxErr: 0 RxErr: 101
  40.023019 CAN 1 Status:chip status warning level - TxErr: 0 RxErr: 101
  41.021410 CAN 1 Status:chip status warning level - TxErr: 0 RxErr: 101
  42.019805 CAN 1 Status:chip status warning level - TxErr: 0 RxErr: 101
  43.018201 CAN 1 Status:chip status warning level - TxErr: 0 RxErr: 101
  44.016600 CAN 1 Status:chip status warning level - TxErr: 0 RxErr: 101
  45.014999 CAN 1 Status:chip status warning level - TxErr: 0 RxErr: 101
  46.013397 CAN 1 Status:chip status warning level - TxErr: 0 RxErr: 101
  47.011794 CAN 1 Status:chip status warning level - TxErr: 0 RxErr: 101
  48.010195 CAN 1 Status:chip status warning level - TxErr: 0 RxErr: 101
  49.008592 CAN 1 Status:chip status warning level - TxErr: 0 RxErr: 101
  50.006987 CAN 1 Status:chip status warning level - TxErr: 0 RxErr: 101
  51.005382 CAN 1 Status:chip status warning level - TxErr: 0 RxErr: 101
  52.003780 CAN 1 Status:chip status warning level - TxErr: 0 RxErr: 101
  53.002177 CAN 1 Status:chip status warning level - TxErr: 0 RxErr: 101
  54.026173 CAN 1 Status:chip status warning level - TxErr: 0 RxErr: 101
  55.024570 CAN 1 Status:chip status warning level - TxErr: 0 RxErr: 101
  56.022965 CAN 1 Status:chip status warning level - TxErr: 0 RxErr: 101
  57.021362 CAN 1 Status:chip status warning level - TxErr: 0 RxErr: 101
  58.019760 CAN 1 Status:chip status warning level - TxErr: 0 RxErr: 101
  59.018158 CAN 1 Status:chip status warning level - TxErr: 0 RxErr: 101
  60.016556 CAN 1 Status:chip status warning level - TxErr: 0 RxErr: 101
  61.014953 CAN 1 Status:chip status warning level - TxErr: 0 RxErr: 101
  62.013350 CAN 1 Status:chip status warning level - TxErr: 0 RxErr: 101
  63.011747 CAN 1 Status:chip status warning level - TxErr: 0 RxErr: 101
  64.010144 CAN 1 Status:chip status warning level - TxErr: 0 RxErr: 101
  65.008540 CAN 1 Status:chip status warning level - TxErr: 0 RxErr: 101
  66.006937 CAN 1 Status:chip status warning level - TxErr: 0 RxErr: 101
  67.005334 CAN 1 Status:chip status warning level - TxErr: 0 RxErr: 101
  68.003732 CAN 1 Status:chip status warning level - TxErr: 0 RxErr: 101
  69.002129 CAN 1 Status:chip status warning level - TxErr: 0 RxErr: 101
  70.000526 CAN 1 Status:chip status warning level - TxErr: 0 RxErr: 101
  71.024523 CAN 1 Status:chip status warning level - TxErr: 0 RxErr: 101
  72.022920 CAN 1 Status:chip status warning level - TxErr: 0 RxErr: 101
  73.021317 CAN 1 Status:chip status warning level - TxErr: 0 RxErr: 101
  73.669680 CAN 1 Status:chip status warning level - TxErr: 0 RxErr: 100
  73.669694 1  2015            Rx   d 8   2  16 131   0   0   0   0   0  Length = 239883 BitCount = 124 ID = 2015
  73.683680 CAN 1 Status:chip status warning level - TxErr: 0 RxErr: 99
  73.683695 1  2015            Rx   d 8   2 133 130   0   0   0   0   0  Length = 239891 BitCount = 124 ID = 2015
  73.723585 CAN 1 Status:chip status warning level - TxErr: 0 RxErr: 98
  73.723600 1  2028            Rx   d 8   3 127 133 120   0   0   0   0  Length = 235892 BitCount = 122 ID = 2028
  73.743591 CAN 1 Status:chip status warning level - TxErr: 0 RxErr: 97
  73.743606 1  2028            Rx   d 8   2 197   2   0   0   0   0   0  Length = 237891 BitCount = 123 ID = 2028
  74.019714 CAN 1 Status:chip status warning level - TxErr: 0 RxErr: 97
  74.706680 CAN 1 Status:chip status warning level - TxErr: 0 RxErr: 96
  74.706695 1  2015            Rx   d 8   3  40 131   1   0   0   0   0  Length = 235891 BitCount = 122 ID = 2015
  75.018111 CAN 1 Status:chip status warning level - TxErr: 0 RxErr: 96
  75.757678 CAN 1 Status:chip status error active  - TxErr: 0 RxErr: 95
  75.757693 1  2016            Rx   d 8   2  39   5   0   0   0   0   0  Length = 237891 BitCount = 123 ID = 2016
  75.759796 CAN 1 Status:chip status error active  - TxErr: 0 RxErr: 94
  75.759811 1  2024            Rx   d 8  16  10 103   5 199 159 230 244  Length = 227891 BitCount = 118 ID = 2024
  75.762665 CAN 1 Status:chip status error active  - TxErr: 0 RxErr: 93
  75.762679 1  2016            Rx   d 8  48   0   0   0   0   0   0   0  Length = 243892 BitCount = 126 ID = 2016
  75.763809 CAN 1 Status:chip status error active  - TxErr: 0 RxErr: 92
  75.763823 1  2024            Rx   d 8  33 199  27 134 208   0   0   0  Length = 233892 BitCount = 121 ID = 2024
  75.799735 CAN 1 Status:chip status error active  - TxErr: 0 RxErr: 91
  75.799750 1  2016            Rx   d 8  16  10  39   6 160 162  97  85  Length = 227904 BitCount = 118 ID = 2016
  75.801811 CAN 1 Status:chip status error active  - TxErr: 0 RxErr: 90
  75.801826 1  2024            Rx   d 8  48   0   0   0   0   0   0   0  Length = 245891 BitCount = 127 ID = 2024
  75.806713 CAN 1 Status:chip status error active  - TxErr: 0 RxErr: 89
  75.806728 1  2016            Rx   d 8  33  93  21 112  95   0   0   0  Length = 233891 BitCount = 121 ID = 2016
  75.809817 CAN 1 Status:chip status error active  - TxErr: 0 RxErr: 88
  75.809832 1  2024            Rx   d 8   2 103   6   0   0   0   0   0  Length = 237892 BitCount = 123 ID = 2024
  75.827680 CAN 1 Status:chip status error active  - TxErr: 0 RxErr: 87
  75.827694 1  2016            Rx   d 8   2  16   2   0   0   0   0   0  Length = 239891 BitCount = 124 ID = 2016
  75.859823 CAN 1 Status:chip status error active  - TxErr: 0 RxErr: 86
  75.859838 1  2024            Rx   d 8   3 127  16 120   0   0   0   0  Length = 241892 BitCount = 125 ID = 2024
  75.915692 CAN 1 Status:chip status error active  - TxErr: 0 RxErr: 85
  75.915707 1  2024            Rx   d 8   6  80   2   0  50   1 234   0  Length = 231883 BitCount = 120 ID = 2024
  75.928651 CAN 1 Status:chip status error active  - TxErr: 0 RxErr: 84
  75.928665 1  2016            Rx   d 8   5  49   1   2   0   1   0   0  Length = 235891 BitCount = 122 ID = 2016
  75.931717 CAN 1 Status:chip status error active  - TxErr: 0 RxErr: 83
  75.931731 1  2024            Rx   d 8   4 113   1   2   0   0   0   0  Length = 237892 BitCount = 123 ID = 2024
  75.957643 CAN 1 Status:chip status error active  - TxErr: 0 RxErr: 82
  75.957658 1  2016            Rx   d 8  16  29  49   1   2   1  28  28  Length = 229892 BitCount = 119 ID = 2016
  75.958551 CAN 1 Status:chip status error active  - TxErr: 0 RxErr: 81
  75.958566 1  2024            Rx   d 3  48   0   0  Length = 145896 BitCount = 77 ID = 2024
  75.961645 CAN 1 Status:chip status error active  - TxErr: 0 RxErr: 80
  75.961660 1  2016            Rx   d 8  33  28  28  28  28  28  28  28  Length = 233892 BitCount = 121 ID = 2016
  75.961886 CAN 1 Status:chip status error active  - TxErr: 0 RxErr: 79
  75.961900 1  2016            Rx   d 8  34  28  28  28  28  28  28  28  Length = 231892 BitCount = 120 ID = 2016
  75.962126 CAN 1 Status:chip status error active  - TxErr: 0 RxErr: 78
  75.962141 1  2016            Rx   d 8  35  28  28  28  28  28  28  28  Length = 231892 BitCount = 120 ID = 2016
  75.962374 CAN 1 Status:chip status error active  - TxErr: 0 RxErr: 77
  75.962389 1  2016            Rx   d 8  36  28  28   0   0   0   0   0  Length = 239892 BitCount = 124 ID = 2016
  75.971744 CAN 1 Status:chip status error active  - TxErr: 0 RxErr: 76
  75.971759 1  2024            Rx   d 8   4 113   1   2   1   0   0   0  Length = 237891 BitCount = 123 ID = 2024
  75.988916 CAN 1 Status:chip status error active  - TxErr: 0 RxErr: 75
  75.988931 1  2015            Rx   d 8   2  62 128   0   0   0   0   0  Length = 239891 BitCount = 124 ID = 2015
  76.016508 CAN 1 Status:chip status error active  - TxErr: 0 RxErr: 75
  76.063667 CAN 1 Status:chip status error active  - TxErr: 0 RxErr: 74
  76.063682 1  2016            Rx   d 8   5  49   1 255   0   4   0   0  Length = 233892 BitCount = 121 ID = 2016
  76.100171 CAN 1 Status:chip status error active  - TxErr: 0 RxErr: 73
  76.100185 1  2024            Rx   d 8   3 127  49 120   0   0   0   0  Length = 237892 BitCount = 123 ID = 2024
  77.014905 CAN 1 Status:chip status error active  - TxErr: 0 RxErr: 73
  78.013302 CAN 1 Status:chip status error active  - TxErr: 0 RxErr: 73
  78.989016 CAN 1 Status:chip status error active  - TxErr: 0 RxErr: 72
  78.989031 1  2015            Rx   d 8   2  62 128   0   0   0   0   0  Length = 239883 BitCount = 124 ID = 2015
  79.011699 CAN 1 Status:chip status error active  - TxErr: 0 RxErr: 72
  80.010096 CAN 1 Status:chip status error active  - TxErr: 0 RxErr: 72
  81.008493 CAN 1 Status:chip status error active  - TxErr: 0 RxErr: 72
  81.045801 CAN 1 Status:chip status error active  - TxErr: 0 RxErr: 71
  81.045815 1  2024            Rx   d 8   3 127  49 120   0   0   0   0  Length = 237892 BitCount = 123 ID = 2024
  81.989120 CAN 1 Status:chip status error active  - TxErr: 0 RxErr: 70
  81.989134 1  2015            Rx   d 8   2  62 128   0   0   0   0   0  Length = 239892 BitCount = 124 ID = 2015
  82.006890 CAN 1 Status:chip status error active  - TxErr: 0 RxErr: 70
  83.005287 CAN 1 Status:chip status error active  - TxErr: 0 RxErr: 70
  84.003684 CAN 1 Status:chip status error active  - TxErr: 0 RxErr: 70
  84.989221 CAN 1 Status:chip status error active  - TxErr: 0 RxErr: 69
  84.989235 1  2015            Rx   d 8   2  62 128   0   0   0   0   0  Length = 239892 BitCount = 124 ID = 2015
  85.002081 CAN 1 Status:chip status error active  - TxErr: 0 RxErr: 69
  85.991834 CAN 1 Status:chip status error active  - TxErr: 0 RxErr: 68
  85.991849 1  2024            Rx   d 8   3 127  49 120   0   0   0   0  Length = 237883 BitCount = 123 ID = 2024
  86.026078 CAN 1 Status:chip status error active  - TxErr: 0 RxErr: 68
  87.024475 CAN 1 Status:chip status error active  - TxErr: 0 RxErr: 68
  87.989324 CAN 1 Status:chip status error active  - TxErr: 0 RxErr: 67
  87.989339 1  2015            Rx   d 8   2  62 128   0   0   0   0   0  Length = 239892 BitCount = 124 ID = 2015
  88.022872 CAN 1 Status:chip status error active  - TxErr: 0 RxErr: 67
  89.021269 CAN 1 Status:chip status error active  - TxErr: 0 RxErr: 67
  90.019666 CAN 1 Status:chip status error active  - TxErr: 0 RxErr: 67
  90.937590 CAN 1 Status:chip status error active  - TxErr: 0 RxErr: 66
  90.937605 1  2024            Rx   d 8   3 127  49 120   0   0   0   0  Length = 237891 BitCount = 123 ID = 2024
  90.989429 CAN 1 Status:chip status error active  - TxErr: 0 RxErr: 65
  90.989443 1  2015            Rx   d 8   2  62 128   0   0   0   0   0  Length = 239892 BitCount = 124 ID = 2015
  91.018063 CAN 1 Status:chip status error active  - TxErr: 0 RxErr: 65
  92.016460 CAN 1 Status:chip status error active  - TxErr: 0 RxErr: 65
  93.014857 CAN 1 Status:chip status error active  - TxErr: 0 RxErr: 65
  93.989537 CAN 1 Status:chip status error active  - TxErr: 0 RxErr: 64
  93.989551 1  2015            Rx   d 8   2  62 128   0   0   0   0   0  Length = 239891 BitCount = 124 ID = 2015
  94.013254 CAN 1 Status:chip status error active  - TxErr: 0 RxErr: 64
  95.011651 CAN 1 Status:chip status error active  - TxErr: 0 RxErr: 64
  95.883722 CAN 1 Status:chip status error active  - TxErr: 0 RxErr: 63
  95.883737 1  2024            Rx   d 8   3 127  49 120   0   0   0   0  Length = 237891 BitCount = 123 ID = 2024
  96.010048 CAN 1 Status:chip status error active  - TxErr: 0 RxErr: 63
  96.989636 CAN 1 Status:chip status error active  - TxErr: 0 RxErr: 62
  96.989651 1  2015            Rx   d 8   2  62 128   0   0   0   0   0  Length = 239892 BitCount = 124 ID = 2015
  97.008445 CAN 1 Status:chip status error active  - TxErr: 0 RxErr: 62
  98.006842 CAN 1 Status:chip status error active  - TxErr: 0 RxErr: 62
  99.005239 CAN 1 Status:chip status error active  - TxErr: 0 RxErr: 62
  99.989738 CAN 1 Status:chip status error active  - TxErr: 0 RxErr: 61
  99.989752 1  2015            Rx   d 8   2  62 128   0   0   0   0   0  Length = 239892 BitCount = 124 ID = 2015
 100.003636 CAN 1 Status:chip status error active  - TxErr: 0 RxErr: 61
 100.829485 CAN 1 Status:chip status error active  - TxErr: 0 RxErr: 60
 100.829500 1  2024            Rx   d 8   3 127  49 120   0   0   0   0  Length = 237892 BitCount = 123 ID = 2024
 101.002032 CAN 1 Status:chip status error active  - TxErr: 0 RxErr: 60
 102.026029 CAN 1 Status:chip status error active  - TxErr: 0 RxErr: 60
 102.989840 CAN 1 Status:chip status error active  - TxErr: 0 RxErr: 59
 102.989855 1  2015            Rx   d 8   2  62 128   0   0   0   0   0  Length = 239891 BitCount = 124 ID = 2015
 103.024426 CAN 1 Status:chip status error active  - TxErr: 0 RxErr: 59
 104.022823 CAN 1 Status:chip status error active  - TxErr: 0 RxErr: 59
 105.021220 CAN 1 Status:chip status error active  - TxErr: 0 RxErr: 59
 105.753788 CAN 1 Status:chip status error active  - TxErr: 0 RxErr: 58
 105.753802 1  2024            Rx   d 8   3 127  49 120   0   0   0   0  Length = 237904 BitCount = 123 ID = 2024
 105.989942 CAN 1 Status:chip status error active  - TxErr: 0 RxErr: 57
 105.989956 1  2015            Rx   d 8   2  62 128   0   0   0   0   0  Length = 239892 BitCount = 124 ID = 2015
 106.019617 CAN 1 Status:chip status error active  - TxErr: 0 RxErr: 57
 107.018014 CAN 1 Status:chip status error active  - TxErr: 0 RxErr: 57
 108.016409 CAN 1 Status:chip status error active  - TxErr: 0 RxErr: 57
 108.990040 CAN 1 Status:chip status error active  - TxErr: 0 RxErr: 56
 108.990055 1  2015            Rx   d 8   2  62 128   0   0   0   0   0  Length = 239892 BitCount = 124 ID = 2015
 109.014805 CAN 1 Status:chip status error active  - TxErr: 0 RxErr: 56
 110.013203 CAN 1 Status:chip status error active  - TxErr: 0 RxErr: 56
 110.647364 CAN 1 Status:chip status error active  - TxErr: 0 RxErr: 55
 110.647379 1  2024            Rx   d 8   3 127  49 120   0   0   0   0  Length = 237891 BitCount = 123 ID = 2024
 111.011602 CAN 1 Status:chip status error active  - TxErr: 0 RxErr: 55
 111.990163 CAN 1 Status:chip status error active  - TxErr: 0 RxErr: 54
 111.990178 1  2015            Rx   d 8   2  62 128   0   0   0   0   0  Length = 239892 BitCount = 124 ID = 2015
 112.010000 CAN 1 Status:chip status error active  - TxErr: 0 RxErr: 54
 113.008396 CAN 1 Status:chip status error active  - TxErr: 0 RxErr: 54
 114.006793 CAN 1 Status:chip status error active  - TxErr: 0 RxErr: 54
 114.990265 CAN 1 Status:chip status error active  - TxErr: 0 RxErr: 53
 114.990280 1  2015            Rx   d 8   2  62 128   0   0   0   0   0  Length = 239892 BitCount = 124 ID = 2015
 115.005189 CAN 1 Status:chip status error active  - TxErr: 0 RxErr: 53
 115.540796 CAN 1 Status:chip status error active  - TxErr: 0 RxErr: 52
 115.540811 1  2024            Rx   d 8   3 127  49 120   0   0   0   0  Length = 237892 BitCount = 123 ID = 2024
 116.003586 CAN 1 Status:chip status error active  - TxErr: 0 RxErr: 52
 117.001983 CAN 1 Status:chip status error active  - TxErr: 0 RxErr: 52
 117.990367 CAN 1 Status:chip status error active  - TxErr: 0 RxErr: 51
 117.990382 1  2015            Rx   d 8   2  62 128   0   0   0   0   0  Length = 239891 BitCount = 124 ID = 2015
 118.025980 CAN 1 Status:chip status error active  - TxErr: 0 RxErr: 51
 119.024377 CAN 1 Status:chip status error active  - TxErr: 0 RxErr: 51
 120.022774 CAN 1 Status:chip status error active  - TxErr: 0 RxErr: 51
 120.434108 CAN 1 Status:chip status error active  - TxErr: 0 RxErr: 50
 120.434123 1  2024            Rx   d 8   3 127  49 120   0   0   0   0  Length = 237892 BitCount = 123 ID = 2024
 120.990466 CAN 1 Status:chip status error active  - TxErr: 0 RxErr: 49
 120.990481 1  2015            Rx   d 8   2  62 128   0   0   0   0   0  Length = 239883 BitCount = 124 ID = 2015
 121.021171 CAN 1 Status:chip status error active  - TxErr: 0 RxErr: 49
 122.019568 CAN 1 Status:chip status error active  - TxErr: 0 RxErr: 49
 123.017964 CAN 1 Status:chip status error active  - TxErr: 0 RxErr: 49
 123.990567 CAN 1 Status:chip status error active  - TxErr: 0 RxErr: 48
 123.990582 1  2015            Rx   d 8   2  62 128   0   0   0   0   0  Length = 239891 BitCount = 124 ID = 2015
 124.016361 CAN 1 Status:chip status error active  - TxErr: 0 RxErr: 48
 125.014758 CAN 1 Status:chip status error active  - TxErr: 0 RxErr: 48
 125.327450 CAN 1 Status:chip status error active  - TxErr: 0 RxErr: 47
 125.327465 1  2024            Rx   d 8   3 127  49 120   0   0   0   0  Length = 237891 BitCount = 123 ID = 2024
 126.013155 CAN 1 Status:chip status error active  - TxErr: 0 RxErr: 47
 126.990665 CAN 1 Status:chip status error active  - TxErr: 0 RxErr: 46
 126.990680 1  2015            Rx   d 8   2  62 128   0   0   0   0   0  Length = 239892 BitCount = 124 ID = 2015
 127.011551 CAN 1 Status:chip status error active  - TxErr: 0 RxErr: 46
 128.009948 CAN 1 Status:chip status error active  - TxErr: 0 RxErr: 46
 129.008345 CAN 1 Status:chip status error active  - TxErr: 0 RxErr: 46
 129.990766 CAN 1 Status:chip status error active  - TxErr: 0 RxErr: 45
 129.990780 1  2015            Rx   d 8   2  62 128   0   0   0   0   0  Length = 239891 BitCount = 124 ID = 2015
 130.006741 CAN 1 Status:chip status error active  - TxErr: 0 RxErr: 45
 130.220884 CAN 1 Status:chip status error active  - TxErr: 0 RxErr: 44
 130.220899 1  2024            Rx   d 8   3 127  49 120   0   0   0   0  Length = 237892 BitCount = 123 ID = 2024
 131.005138 CAN 1 Status:chip status error active  - TxErr: 0 RxErr: 44
 132.003535 CAN 1 Status:chip status error active  - TxErr: 0 RxErr: 44
 132.990885 CAN 1 Status:chip status error active  - TxErr: 0 RxErr: 43
 132.990900 1  2015            Rx   d 8   2  62 128   0   0   0   0   0  Length = 239892 BitCount = 124 ID = 2015
 133.001932 CAN 1 Status:chip status error active  - TxErr: 0 RxErr: 43
 134.025929 CAN 1 Status:chip status error active  - TxErr: 0 RxErr: 43
 135.024325 CAN 1 Status:chip status error active  - TxErr: 0 RxErr: 43
 135.113983 CAN 1 Status:chip status error active  - TxErr: 0 RxErr: 42
 135.113997 1  2024            Rx   d 8   3 127  49 120   0   0   0   0  Length = 237892 BitCount = 123 ID = 2024
 135.990987 CAN 1 Status:chip status error active  - TxErr: 0 RxErr: 41
 135.991001 1  2015            Rx   d 8   2  62 128   0   0   0   0   0  Length = 239883 BitCount = 124 ID = 2015
 136.022722 CAN 1 Status:chip status error active  - TxErr: 0 RxErr: 41
 137.021120 CAN 1 Status:chip status error active  - TxErr: 0 RxErr: 41
 138.019517 CAN 1 Status:chip status error active  - TxErr: 0 RxErr: 41
 138.991084 CAN 1 Status:chip status error active  - TxErr: 0 RxErr: 40
 138.991099 1  2015            Rx   d 8   2  62 128   0   0   0   0   0  Length = 239883 BitCount = 124 ID = 2015
 139.017913 CAN 1 Status:chip status error active  - TxErr: 0 RxErr: 40
 140.007222 CAN 1 Status:chip status error active  - TxErr: 0 RxErr: 39
 140.007237 1  2024            Rx   d 8   3 127  49 120   0   0   0   0  Length = 237892 BitCount = 123 ID = 2024
 141.014705 CAN 1 Status:chip status error active  - TxErr: 0 RxErr: 39
 141.991187 CAN 1 Status:chip status error active  - TxErr: 0 RxErr: 38
 141.991201 1  2015            Rx   d 8   2  62 128   0   0   0   0   0  Length = 239892 BitCount = 124 ID = 2015
 142.013101 CAN 1 Status:chip status error active  - TxErr: 0 RxErr: 38
 143.011498 CAN 1 Status:chip status error active  - TxErr: 0 RxErr: 38
 144.009895 CAN 1 Status:chip status error active  - TxErr: 0 RxErr: 38
 144.900701 CAN 1 Status:chip status error active  - TxErr: 0 RxErr: 37
 144.900716 1  2024            Rx   d 8   3 127  49 120   0   0   0   0  Length = 237892 BitCount = 123 ID = 2024
 144.991288 CAN 1 Status:chip status error active  - TxErr: 0 RxErr: 36
 144.991303 1  2015            Rx   d 8   2  62 128   0   0   0   0   0  Length = 239892 BitCount = 124 ID = 2015
 145.008292 CAN 1 Status:chip status error active  - TxErr: 0 RxErr: 36
 146.006689 CAN 1 Status:chip status error active  - TxErr: 0 RxErr: 36
 147.005085 CAN 1 Status:chip status error active  - TxErr: 0 RxErr: 36
 147.991402 CAN 1 Status:chip status error active  - TxErr: 0 RxErr: 35
 147.991417 1  2015            Rx   d 8   2  62 128   0   0   0   0   0  Length = 239892 BitCount = 124 ID = 2015
 148.003482 CAN 1 Status:chip status error active  - TxErr: 0 RxErr: 35
 149.001876 CAN 1 Status:chip status error active  - TxErr: 0 RxErr: 35
 149.794184 CAN 1 Status:chip status error active  - TxErr: 0 RxErr: 34
 149.794199 1  2024            Rx   d 8   3 127  49 120   0   0   0   0  Length = 237891 BitCount = 123 ID = 2024
 150.025872 CAN 1 Status:chip status error active  - TxErr: 0 RxErr: 34
 150.991513 CAN 1 Status:chip status error active  - TxErr: 0 RxErr: 33
 150.991527 1  2015            Rx   d 8   2  62 128   0   0   0   0   0  Length = 239891 BitCount = 124 ID = 2015
 151.024277 CAN 1 Status:chip status error active  - TxErr: 0 RxErr: 33
 152.022677 CAN 1 Status:chip status error active  - TxErr: 0 RxErr: 33
 153.021070 CAN 1 Status:chip status error active  - TxErr: 0 RxErr: 33
 153.991613 CAN 1 Status:chip status error active  - TxErr: 0 RxErr: 32
 153.991628 1  2015            Rx   d 8   2  62 128   0   0   0   0   0  Length = 239891 BitCount = 124 ID = 2015
 154.019461 CAN 1 Status:chip status error active  - TxErr: 0 RxErr: 32
 154.687537 CAN 1 Status:chip status error active  - TxErr: 0 RxErr: 31
 154.687551 1  2024            Rx   d 8   3 127  49 120   0   0   0   0  Length = 237892 BitCount = 123 ID = 2024
 155.017855 CAN 1 Status:chip status error active  - TxErr: 0 RxErr: 31
 156.016252 CAN 1 Status:chip status error active  - TxErr: 0 RxErr: 31
 156.991713 CAN 1 Status:chip status error active  - TxErr: 0 RxErr: 30
 156.991728 1  2015            Rx   d 8   2  62 128   0   0   0   0   0  Length = 239892 BitCount = 124 ID = 2015
 157.014650 CAN 1 Status:chip status error active  - TxErr: 0 RxErr: 30
 158.013048 CAN 1 Status:chip status error active  - TxErr: 0 RxErr: 30
 159.011446 CAN 1 Status:chip status error active  - TxErr: 0 RxErr: 30
 159.580939 CAN 1 Status:chip status error active  - TxErr: 0 RxErr: 29
 159.580954 1  2024            Rx   d 8   3 127  49 120   0   0   0   0  Length = 237891 BitCount = 123 ID = 2024
 159.991824 CAN 1 Status:chip status error active  - TxErr: 0 RxErr: 28
 159.991839 1  2015            Rx   d 8   2  62 128   0   0   0   0   0  Length = 239891 BitCount = 124 ID = 2015
 160.009842 CAN 1 Status:chip status error active  - TxErr: 0 RxErr: 28
 161.008238 CAN 1 Status:chip status error active  - TxErr: 0 RxErr: 28
 162.006635 CAN 1 Status:chip status error active  - TxErr: 0 RxErr: 28
 162.991923 CAN 1 Status:chip status error active  - TxErr: 0 RxErr: 27
 162.991938 1  2015            Rx   d 8   2  62 128   0   0   0   0   0  Length = 239891 BitCount = 124 ID = 2015
 163.005031 CAN 1 Status:chip status error active  - TxErr: 0 RxErr: 27
 164.003428 CAN 1 Status:chip status error active  - TxErr: 0 RxErr: 27
 164.474386 CAN 1 Status:chip status error active  - TxErr: 0 RxErr: 26
 164.474401 1  2024            Rx   d 8   3 127  49 120   0   0   0   0  Length = 237892 BitCount = 123 ID = 2024
 165.001825 CAN 1 Status:chip status error active  - TxErr: 0 RxErr: 26
 165.992027 CAN 1 Status:chip status error active  - TxErr: 0 RxErr: 25
 165.992041 1  2015            Rx   d 8   2  62 128   0   0   0   0   0  Length = 239891 BitCount = 124 ID = 2015
 166.025822 CAN 1 Status:chip status error active  - TxErr: 0 RxErr: 25
 167.024218 CAN 1 Status:chip status error active  - TxErr: 0 RxErr: 25
 168.022614 CAN 1 Status:chip status error active  - TxErr: 0 RxErr: 25
 168.992124 CAN 1 Status:chip status error active  - TxErr: 0 RxErr: 24
 168.992139 1  2015            Rx   d 8   2  62 128   0   0   0   0   0  Length = 239891 BitCount = 124 ID = 2015
 169.021011 CAN 1 Status:chip status error active  - TxErr: 0 RxErr: 24
 169.367820 CAN 1 Status:chip status error active  - TxErr: 0 RxErr: 23
 169.367834 1  2024            Rx   d 8   3 127  49 120   0   0   0   0  Length = 237892 BitCount = 123 ID = 2024
 170.019408 CAN 1 Status:chip status error active  - TxErr: 0 RxErr: 23
 171.017805 CAN 1 Status:chip status error active  - TxErr: 0 RxErr: 23
 171.992229 CAN 1 Status:chip status error active  - TxErr: 0 RxErr: 22
 171.992243 1  2015            Rx   d 8   2  62 128   0   0   0   0   0  Length = 239892 BitCount = 124 ID = 2015
 172.016202 CAN 1 Status:chip status error active  - TxErr: 0 RxErr: 22
 173.014599 CAN 1 Status:chip status error active  - TxErr: 0 RxErr: 22
 174.012996 CAN 1 Status:chip status error active  - TxErr: 0 RxErr: 22
 174.261398 CAN 1 Status:chip status error active  - TxErr: 0 RxErr: 21
 174.261413 1  2024            Rx   d 8   3 127  49 120   0   0   0   0  Length = 237891 BitCount = 123 ID = 2024
 174.992331 CAN 1 Status:chip status error active  - TxErr: 0 RxErr: 20
 174.992346 1  2015            Rx   d 8   2  62 128   0   0   0   0   0  Length = 239891 BitCount = 124 ID = 2015
 175.011393 CAN 1 Status:chip status error active  - TxErr: 0 RxErr: 20
 176.009789 CAN 1 Status:chip status error active  - TxErr: 0 RxErr: 20
 177.008186 CAN 1 Status:chip status error active  - TxErr: 0 RxErr: 20
 177.992432 CAN 1 Status:chip status error active  - TxErr: 0 RxErr: 19
 177.992446 1  2015            Rx   d 8   2  62 128   0   0   0   0   0  Length = 239892 BitCount = 124 ID = 2015
 178.006583 CAN 1 Status:chip status error active  - TxErr: 0 RxErr: 19
 179.004980 CAN 1 Status:chip status error active  - TxErr: 0 RxErr: 19
 179.154746 CAN 1 Status:chip status error active  - TxErr: 0 RxErr: 18
 179.154761 1  2024            Rx   d 8   3 127  49 120   0   0   0   0  Length = 237892 BitCount = 123 ID = 2024
 180.003377 CAN 1 Status:chip status error active  - TxErr: 0 RxErr: 18
 180.992553 CAN 1 Status:chip status error active  - TxErr: 0 RxErr: 17
 180.992568 1  2015            Rx   d 8   2  62 128   0   0   0   0   0  Length = 239891 BitCount = 124 ID = 2015
 181.001774 CAN 1 Status:chip status error active  - TxErr: 0 RxErr: 17
 182.025771 CAN 1 Status:chip status error active  - TxErr: 0 RxErr: 17
 183.024168 CAN 1 Status:chip status error active  - TxErr: 0 RxErr: 17
 183.992656 CAN 1 Status:chip status error active  - TxErr: 0 RxErr: 16
 183.992671 1  2015            Rx   d 8   2  62 128   0   0   0   0   0  Length = 239891 BitCount = 124 ID = 2015
 184.022565 CAN 1 Status:chip status error active  - TxErr: 0 RxErr: 16
 184.070573 CAN 1 Status:chip status error active  - TxErr: 0 RxErr: 15
 184.070587 1  2024            Rx   d 8   3 127  49 120   0   0   0   0  Length = 237892 BitCount = 123 ID = 2024
 185.020962 CAN 1 Status:chip status error active  - TxErr: 0 RxErr: 15
 186.019359 CAN 1 Status:chip status error active  - TxErr: 0 RxErr: 15
 186.992756 CAN 1 Status:chip status error active  - TxErr: 0 RxErr: 14
 186.992771 1  2015            Rx   d 8   2  62 128   0   0   0   0   0  Length = 239891 BitCount = 124 ID = 2015
 187.017756 CAN 1 Status:chip status error active  - TxErr: 0 RxErr: 14
 188.016153 CAN 1 Status:chip status error active  - TxErr: 0 RxErr: 14
 189.014550 CAN 1 Status:chip status error active  - TxErr: 0 RxErr: 14
 189.019008 CAN 1 Status:chip status error active  - TxErr: 0 RxErr: 13
 189.019022 1  2024            Rx   d 8   3 127  49 120   0   0   0   0  Length = 237892 BitCount = 123 ID = 2024
 189.992854 CAN 1 Status:chip status error active  - TxErr: 0 RxErr: 12
 189.992869 1  2015            Rx   d 8   2  62 128   0   0   0   0   0  Length = 239891 BitCount = 124 ID = 2015
 190.012947 CAN 1 Status:chip status error active  - TxErr: 0 RxErr: 12
 191.011344 CAN 1 Status:chip status error active  - TxErr: 0 RxErr: 12
 192.009743 CAN 1 Status:chip status error active  - TxErr: 0 RxErr: 12
 192.992963 CAN 1 Status:chip status error active  - TxErr: 0 RxErr: 11
 192.992977 1  2015            Rx   d 8   2  62 128   0   0   0   0   0  Length = 239891 BitCount = 124 ID = 2015
 193.008141 CAN 1 Status:chip status error active  - TxErr: 0 RxErr: 11
 193.967619 CAN 1 Status:chip status error active  - TxErr: 0 RxErr: 10
 193.967634 1  2024            Rx   d 8   3 127  49 120   0   0   0   0  Length = 237883 BitCount = 123 ID = 2024
 194.006537 CAN 1 Status:chip status error active  - TxErr: 0 RxErr: 10
 195.004932 CAN 1 Status:chip status error active  - TxErr: 0 RxErr: 10
 195.993060 CAN 1 Status:chip status error active  - TxErr: 0 RxErr: 9
 195.993075 1  2015            Rx   d 8   2  62 128   0   0   0   0   0  Length = 239892 BitCount = 124 ID = 2015
 196.003328 CAN 1 Status:chip status error active  - TxErr: 0 RxErr: 9
 197.001725 CAN 1 Status:chip status error active  - TxErr: 0 RxErr: 9
 198.025723 CAN 1 Status:chip status error active  - TxErr: 0 RxErr: 9
 198.864337 CAN 1 Status:chip status error active  - TxErr: 0 RxErr: 8
 198.864352 1  2024            Rx   d 8   3 127  49 120   0   0   0   0  Length = 237891 BitCount = 123 ID = 2024
 198.993160 CAN 1 Status:chip status error active  - TxErr: 0 RxErr: 7
 198.993175 1  2015            Rx   d 8   2  62 128   0   0   0   0   0  Length = 239891 BitCount = 124 ID = 2015
 199.024120 CAN 1 Status:chip status error active  - TxErr: 0 RxErr: 7
 200.022518 CAN 1 Status:chip status error active  - TxErr: 0 RxErr: 7
 201.020917 CAN 1 Status:chip status error active  - TxErr: 0 RxErr: 7
 201.993267 CAN 1 Status:chip status error active  - TxErr: 0 RxErr: 6
 201.993281 1  2015            Rx   d 8   2  62 128   0   0   0   0   0  Length = 239892 BitCount = 124 ID = 2015
 202.019314 CAN 1 Status:chip status error active  - TxErr: 0 RxErr: 6
 203.017710 CAN 1 Status:chip status error active  - TxErr: 0 RxErr: 6
 203.757070 CAN 1 Status:chip status error active  - TxErr: 0 RxErr: 5
 203.757085 1  2024            Rx   d 8   3 127  49 120   0   0   0   0  Length = 237891 BitCount = 123 ID = 2024
 204.016108 CAN 1 Status:chip status error active  - TxErr: 0 RxErr: 5
 204.993369 CAN 1 Status:chip status error active  - TxErr: 0 RxErr: 4
 204.993384 1  2015            Rx   d 8   2  62 128   0   0   0   0   0  Length = 239883 BitCount = 124 ID = 2015
 205.014504 CAN 1 Status:chip status error active  - TxErr: 0 RxErr: 4
 206.012900 CAN 1 Status:chip status error active  - TxErr: 0 RxErr: 4
 207.011297 CAN 1 Status:chip status error active  - TxErr: 0 RxErr: 4
 207.993483 CAN 1 Status:chip status error active  - TxErr: 0 RxErr: 3
 207.993498 1  2015            Rx   d 8   2  62 128   0   0   0   0   0  Length = 239891 BitCount = 124 ID = 2015
 208.009693 CAN 1 Status:chip status error active  - TxErr: 0 RxErr: 3
 208.654216 CAN 1 Status:chip status error active  - TxErr: 0 RxErr: 2
 208.654231 1  2024            Rx   d 8   3 127  49 120   0   0   0   0  Length = 237883 BitCount = 123 ID = 2024
 209.008090 CAN 1 Status:chip status error active  - TxErr: 0 RxErr: 2
 210.006487 CAN 1 Status:chip status error active  - TxErr: 0 RxErr: 2
 210.993586 CAN 1 Status:chip status error active  - TxErr: 0 RxErr: 1
 210.993600 1  2015            Rx   d 8   2  62 128   0   0   0   0   0  Length = 239892 BitCount = 124 ID = 2015
 211.004885 CAN 1 Status:chip status error active  - TxErr: 0 RxErr: 1
 212.003282 CAN 1 Status:chip status error active  - TxErr: 0 RxErr: 1
 213.001679 CAN 1 Status:chip status error active  - TxErr: 0 RxErr: 1
 213.551317 CAN 1 Status:chip status error active
 213.551332 1  2024            Rx   d 8   3 127  49 120   0   0   0   0  Length = 237891 BitCount = 123 ID = 2024
 213.993701 1  2015            Rx   d 8   2  62 128   0   0   0   0   0  Length = 239891 BitCount = 124 ID = 2015
 214.025676 CAN 1 Status:chip status error active
 215.024073 CAN 1 Status:chip status error active
 216.022470 CAN 1 Status:chip status error active
 216.993822 1  2015            Rx   d 8   2  62 128   0   0   0   0   0  Length = 239892 BitCount = 124 ID = 2015
 217.020867 CAN 1 Status:chip status error active
 218.019264 CAN 1 Status:chip status error active
 218.448621 1  2024            Rx   d 8   3 127  49 120   0   0   0   0  Length = 237892 BitCount = 123 ID = 2024
 219.017661 CAN 1 Status:chip status error active
 219.993920 1  2015            Rx   d 8   2  62 128   0   0   0   0   0  Length = 239904 BitCount = 124 ID = 2015
 220.016058 CAN 1 Status:chip status error active
 221.014454 CAN 1 Status:chip status error active
 222.012851 CAN 1 Status:chip status error active
 222.994017 1  2015            Rx   d 8   2  62 128   0   0   0   0   0  Length = 239883 BitCount = 124 ID = 2015
 223.011248 CAN 1 Status:chip status error active
 223.345885 1  2024            Rx   d 8   3 127  49 120   0   0   0   0  Length = 237892 BitCount = 123 ID = 2024
 224.009645 CAN 1 Status:chip status error active
 225.008042 CAN 1 Status:chip status error active
 225.994117 1  2015            Rx   d 8   2  62 128   0   0   0   0   0  Length = 239892 BitCount = 124 ID = 2015
 226.006439 CAN 1 Status:chip status error active
 227.004836 CAN 1 Status:chip status error active
 228.003233 CAN 1 Status:chip status error active
 228.243194 1  2024            Rx   d 8   3 127  49 120   0   0   0   0  Length = 237892 BitCount = 123 ID = 2024
 228.994220 1  2015            Rx   d 8   2  62 128   0   0   0   0   0  Length = 239883 BitCount = 124 ID = 2015
 229.001631 CAN 1 Status:chip status error active
 230.025628 CAN 1 Status:chip status error active
 231.024025 CAN 1 Status:chip status error active
 231.994323 1  2015            Rx   d 8   2  62 128   0   0   0   0   0  Length = 239892 BitCount = 124 ID = 2015
 232.022422 CAN 1 Status:chip status error active
 233.020818 CAN 1 Status:chip status error active
 233.134969 1  2024            Rx   d 8   3 127  49 120   0   0   0   0  Length = 237891 BitCount = 123 ID = 2024
 234.019215 CAN 1 Status:chip status error active
 234.994422 1  2015            Rx   d 8   2  62 128   0   0   0   0   0  Length = 239892 BitCount = 124 ID = 2015
 235.017612 CAN 1 Status:chip status error active
 236.016009 CAN 1 Status:chip status error active
 237.014406 CAN 1 Status:chip status error active
 237.982374 1  2024            Rx   d 8   4 113   1 255   0   0   0   0  Length = 235892 BitCount = 122 ID = 2024
 237.994522 1  2015            Rx   d 8   2  62 128   0   0   0   0   0  Length = 239892 BitCount = 124 ID = 2015
 238.007322 1  2016            Rx   d 8  16  11  52   0  68 128  10   0  Length = 235892 BitCount = 122 ID = 2016
 238.008212 1  2024            Rx   d 3  48   0   0  Length = 145895 BitCount = 77 ID = 2024
 238.011255 1  2016            Rx   d 8  33   0   0 103   0   0   0   0  Length = 237891 BitCount = 123 ID = 2016
 238.012804 CAN 1 Status:chip status error active
 238.014397 1  2024            Rx   d 8   4 116  32  15 255   0   0   0  Length = 233892 BitCount = 121 ID = 2024
 238.147314 1  2016            Rx   d 8  31 255  54   1 239 190 173 222  Length = 229892 BitCount = 119 ID = 2016
 238.148328 1  2024            Rx   d 3  48   0   0  Length = 145896 BitCount = 77 ID = 2024
 238.151256 1  2016            Rx   d 8  33   0   0   0   0   0   0   0  Length = 243892 BitCount = 126 ID = 2016
 238.151508 1  2016            Rx   d 8  34   0   0   0   0   0   0   0  Length = 243892 BitCount = 126 ID = 2016
 238.151761 1  2016            Rx   d 8  35   0   0   0   0   0   0   0  Length = 243892 BitCount = 126 ID = 2016
 238.152011 1  2016            Rx   d 8  36   0   0   0   0   0   0   0  Length = 241892 BitCount = 125 ID = 2016
 238.152261 1  2016            Rx   d 8  37   0   0   0   0   0   0   0  Length = 241892 BitCount = 125 ID = 2016
 238.152513 1  2016            Rx   d 8  38   0   0   0   0   0   0   0  Length = 243879 BitCount = 126 ID = 2016
 238.152765 1  2016            Rx   d 8  39   0   0   0   0   0   0   0  Length = 243879 BitCount = 126 ID = 2016
 238.153016 1  2016            Rx   d 8  40   0   0   0   0   0   0   0  Length = 241879 BitCount = 125 ID = 2016
 238.153266 1  2016            Rx   d 8  41   0   0   0   0   0   0   0  Length = 241891 BitCount = 125 ID = 2016
 238.153516 1  2016            Rx   d 8  42   0   0   0   0   0   0   0  Length = 241891 BitCount = 125 ID = 2016
 238.153766 1  2016            Rx   d 8  43   0   0   0   0   0   0   0  Length = 241891 BitCount = 125 ID = 2016
 238.154016 1  2016            Rx   d 8  44   0   0   0   0   0   0   0  Length = 241891 BitCount = 125 ID = 2016
 238.154271 1  2016            Rx   d 8  45   0   0   0   0   0   0   0  Length = 245891 BitCount = 127 ID = 2016
 238.154521 1  2016            Rx   d 8  46   0   0   0   0   0   0   0  Length = 241891 BitCount = 125 ID = 2016
 238.154771 1  2016            Rx   d 8  47   0   0   0   0   0   0   0  Length = 241891 BitCount = 125 ID = 2016
 238.155023 1  2016            Rx   d 8  32   0   0   0   0   0   0   0  Length = 243891 BitCount = 126 ID = 2016
 238.155275 1  2016            Rx   d 8  33   0   0   0   0   0   0   0  Length = 243879 BitCount = 126 ID = 2016
 238.155528 1  2016            Rx   d 8  34   0   0   0   0   0   0   0  Length = 243879 BitCount = 126 ID = 2016
 238.155780 1  2016            Rx   d 8  35   0   0   0   0   0   0   0  Length = 243892 BitCount = 126 ID = 2016
 238.156030 1  2016            Rx   d 8  36   0   0   0   0   0   0   0  Length = 241892 BitCount = 125 ID = 2016
 238.156280 1  2016            Rx   d 8  37   0   0   0   0   0   0   0  Length = 241892 BitCount = 125 ID = 2016
 238.156532 1  2016            Rx   d 8  38   0   0   0   0   0   0   0  Length = 243892 BitCount = 126 ID = 2016
 238.156785 1  2016            Rx   d 8  39   0   0   0   0   0   0   0  Length = 243892 BitCount = 126 ID = 2016
 238.157035 1  2016            Rx   d 8  40   0   0   0   0   0   0   0  Length = 241892 BitCount = 125 ID = 2016
 238.157285 1  2016            Rx   d 8  41   0   0   0   0   0   0   0  Length = 241891 BitCount = 125 ID = 2016
 238.157535 1  2016            Rx   d 8  42   0   0   0   0   0   0   0  Length = 241891 BitCount = 125 ID = 2016
 238.157785 1  2016            Rx   d 8  43   0   0   0   0   0   0   0  Length = 241891 BitCount = 125 ID = 2016
 238.158036 1  2016            Rx   d 8  44   0   0   0   0   0   0   0  Length = 241892 BitCount = 125 ID = 2016
 238.158290 1  2016            Rx   d 8  45   0   0   0   0   0   0   0  Length = 245892 BitCount = 127 ID = 2016
 238.158540 1  2016            Rx   d 8  46   0   0   0   0   0   0   0  Length = 241891 BitCount = 125 ID = 2016
 238.158790 1  2016            Rx   d 8  47   0   0   0   0   0   0   0  Length = 241892 BitCount = 125 ID = 2016
 238.159042 1  2016            Rx   d 8  32   0   0   0   0   0   0   0  Length = 243892 BitCount = 126 ID = 2016
 238.159295 1  2016            Rx   d 8  33   0   0   0   0   0   0   0  Length = 243891 BitCount = 126 ID = 2016
 238.159547 1  2016            Rx   d 8  34   0   0   0   0   0   0   0  Length = 243891 BitCount = 126 ID = 2016
 238.159799 1  2016            Rx   d 8  35   0   0   0   0   0   0   0  Length = 243891 BitCount = 126 ID = 2016
 238.160049 1  2016            Rx   d 8  36   0   0   0   0   0   0   0  Length = 241891 BitCount = 125 ID = 2016
 238.160291 1  2016            Rx   d 8  37  96   0   0   2 224 250 112  Length = 233891 BitCount = 121 ID = 2016
 238.160536 1  2016            Rx   d 8  38 128   0   0 113 128   0 113  Length = 235891 BitCount = 122 ID = 2016
 238.160778 1  2016            Rx   d 8  39  15 128   1   1   3   9 250  Length = 233883 BitCount = 121 ID = 2016
 238.161020 1  2016            Rx   d 8  40 250 250 250 250 250 250 250  Length = 233892 BitCount = 121 ID = 2016
 238.161266 1  2016            Rx   d 8  41 250 250 250 250   0   0   0  Length = 237892 BitCount = 123 ID = 2016
 238.161516 1  2016            Rx   d 8  42   0   0   0   0   0   0   0  Length = 241892 BitCount = 125 ID = 2016
 238.161767 1  2016            Rx   d 8  43   0   0   0   0   0   0   0  Length = 241892 BitCount = 125 ID = 2016
 238.162017 1  2016            Rx   d 8  44   0   0   0   0   0   0   0  Length = 241892 BitCount = 125 ID = 2016
 238.162271 1  2016            Rx   d 8  45   0   0   0   0   0   0   0  Length = 245892 BitCount = 127 ID = 2016
 238.162507 1  2016            Rx   d 8  46   0 232 250 112 128  65  49  Length = 227892 BitCount = 118 ID = 2016
 238.162735 1  2016            Rx   d 8  47  50  51  52  53  54  55  56  Length = 219891 BitCount = 114 ID = 2016
 238.162980 1  2016            Rx   d 8  32  57   0   0   0   1  10 128  Length = 235891 BitCount = 122 ID = 2016
 238.163224 1  2016            Rx   d 8  33 247 255 112 128   9   0   0  Length = 235891 BitCount = 122 ID = 2016
 238.163460 1  2016            Rx   d 8  34   2 248 255 112 128 184 219  Length = 227892 BitCount = 118 ID = 2016
 238.163702 1  2016            Rx   d 8  35  14 128  55   1  15 128   0  Length = 233891 BitCount = 121 ID = 2016
 238.163944 1  2016            Rx   d 8  36   0   0   2  28  99  11 128  Length = 233891 BitCount = 121 ID = 2016
 238.164187 1  2016            Rx   d 8  37  56   1  15 128  87   1  15  Length = 233892 BitCount = 121 ID = 2016
 238.164431 1  2016            Rx   d 8  38 128   0   0   0   2  32  99  Length = 235892 BitCount = 122 ID = 2016
 238.164671 1  2016            Rx   d 8  39  11 128  88   1  15 128  39  Length = 231892 BitCount = 120 ID = 2016
 238.164919 1  2016            Rx   d 8  40  39  15 128   0   0   0   2  Length = 239891 BitCount = 124 ID = 2016
 238.165153 1  2016            Rx   d 8  41  36  99  11 128  40  39  15  Length = 225891 BitCount = 117 ID = 2016
 238.165400 1  2016            Rx   d 8  42 128 191  76  15 128   0   0  Length = 237891 BitCount = 123 ID = 2016
 238.165636 1  2016            Rx   d 8  43   0   2  40  99  11 128 192  Length = 227891 BitCount = 118 ID = 2016
 238.165880 1  2016            Rx   d 8  44  76  15 128  47 112  15 128  Length = 235891 BitCount = 122 ID = 2016
 238.166122 1  2016            Rx   d 8  45   0   0   0   2  44  99  11  Length = 233891 BitCount = 121 ID = 2016
 238.166364 1  2016            Rx   d 8  46 128  48 112  15 128  79 112  Length = 233892 BitCount = 121 ID = 2016
 238.166609 1  2016            Rx   d 8  47  15 128   0   0   0   2  48  Length = 235892 BitCount = 122 ID = 2016
 238.166849 1  2016            Rx   d 8  32  99  11 128  80 112  15 128  Length = 231892 BitCount = 120 ID = 2016
 238.167093 1  2016            Rx   d 8  33 111 112  15 128   0   0   0  Length = 235892 BitCount = 122 ID = 2016
 238.167325 1  2016            Rx   d 8  34   2  52  99  11 128  40 113  Length = 223892 BitCount = 116 ID = 2016
 238.167565 1  2016            Rx   d 8  35  15 128 239 206  17 128   4  Length = 231892 BitCount = 120 ID = 2016
 238.167810 1  2016            Rx   d 8  36   0   0   2  48   4  10 128  Length = 235892 BitCount = 122 ID = 2016
 238.168042 1  2016            Rx   d 8  37 216  17  93 155  39 238 162  Length = 223892 BitCount = 116 ID = 2016
 238.168292 1  2016            Rx   d 8  38 100   0   0   0   0   0   0  Length = 241891 BitCount = 125 ID = 2016
 238.168544 1  2016            Rx   d 8  39   0   0   0   0   0   0   0  Length = 243891 BitCount = 126 ID = 2016
 238.168794 1  2016            Rx   d 8  40   0   0   0   0   0   0   0  Length = 241891 BitCount = 125 ID = 2016
 238.169039 1  2016            Rx   d 8  41   0   0   0   0 160  10 130  Length = 235891 BitCount = 122 ID = 2016
 238.169277 1  2016            Rx   d 8  42   0 205 128 227  15 145   0  Length = 229891 BitCount = 119 ID = 2016
 238.169515 1  2016            Rx   d 8  43   0  39 217  34  16  21 160  Length = 229891 BitCount = 119 ID = 2016
 238.169753 1  2016            Rx   d 8  44  15 210   2 137  34  72   1  Length = 229892 BitCount = 119 ID = 2016
 238.169992 1  2016            Rx   d 8  45 252 254 145  64 136 255 217  Length = 229892 BitCount = 119 ID = 2016
 238.170230 1  2016            Rx   d 8  46 255 212 143  76 240 239 143  Length = 229892 BitCount = 119 ID = 2016
 238.170470 1  2016            Rx   d 8  47  66 128 145  48   0 255 217  Length = 231891 BitCount = 120 ID = 2016
 238.170708 1  2016            Rx   d 8  32 255   0   6  25 255  12 144  Length = 229891 BitCount = 119 ID = 2016
 238.170944 1  2016            Rx   d 8  33 145  48 136  47 143 255 207  Length = 227891 BitCount = 118 ID = 2016
 238.171179 1  2016            Rx   d 8  34 241 150 241 217  34   8  13  Length = 225891 BitCount = 117 ID = 2016
 238.171413 1  2016            Rx   d 8  35  89 255  12 144  25 255  12  Length = 225891 BitCount = 117 ID = 2016
 238.171649 1  2016            Rx   d 8  36 144  25 255  12 144 143 255  Length = 227892 BitCount = 118 ID = 2016
 238.171881 1  2016            Rx   d 8  37 207 241 150 242  89 255  12  Length = 223892 BitCount = 116 ID = 2016
 238.172117 1  2016            Rx   d 8  38 144  25 255  12 144 130  31  Length = 227892 BitCount = 118 ID = 2016
 238.172352 1  2016            Rx   d 8  39 108  32 145  48 136  47 217  Length = 225892 BitCount = 117 ID = 2016
 238.172590 1  2016            Rx   d 8  40  34   0  13 108  32 145  48  Length = 229892 BitCount = 119 ID = 2016
 238.172826 1  2016            Rx   d 8  41 136  47 217  34   4  13 108  Length = 227892 BitCount = 118 ID = 2016
 238.173064 1  2016            Rx   d 8  42  32  25 255  12 144 143 255  Length = 229892 BitCount = 119 ID = 2016
 238.173296 1  2016            Rx   d 8  43 207 241 150 241  89 255  12  Length = 223883 BitCount = 116 ID = 2016
 238.173537 1  2016            Rx   d 8  44 144  25 255  12 144  25 255  Length = 231883 BitCount = 120 ID = 2016
 238.173773 1  2016            Rx   d 8  45  12 144 143 255 207 241 150  Length = 227891 BitCount = 118 ID = 2016
 238.174009 1  2016            Rx   d 8  46 243  89 255  12 144  25 255  Length = 227891 BitCount = 118 ID = 2016
 238.174243 1  2016            Rx   d 8  47  12 144 145  48 136 255 217  Length = 225891 BitCount = 117 ID = 2016
 238.174487 1  2016            Rx   d 8  32 255   0  13   0   0  76 240  Length = 235891 BitCount = 122 ID = 2016
 238.174726 1  2016            Rx   d 8  33 111  47 254 127 123  32   1  Length = 229891 BitCount = 119 ID = 2016
 238.174962 1  2016            Rx   d 8  34 248  27  15   0 246 145  64  Length = 227891 BitCount = 118 ID = 2016
 238.175202 1  2016            Rx   d 8  35 136 255 217 255 200 143 104  Length = 231892 BitCount = 120 ID = 2016
 238.175442 1  2016            Rx   d 8  36  15 145  64 136 255 217 255  Length = 231892 BitCount = 120 ID = 2016
 238.175672 1  2016            Rx   d 8  37 212 143  76 240 183  15   1  Length = 221892 BitCount = 115 ID = 2016
 238.175911 1  2016            Rx   d 8  38 252 104  15 145  96 136 255  Length = 229891 BitCount = 119 ID = 2016
 238.176147 1  2016            Rx   d 8  39 217 255 212 143  76 240 239  Length = 227891 BitCount = 118 ID = 2016
 238.176383 1  2016            Rx   d 8  40 143  66 128 145  48   0 255  Length = 227891 BitCount = 118 ID = 2016
 238.176621 1  2016            Rx   d 8  41 217 255   0   6  25 255  12  Length = 229891 BitCount = 119 ID = 2016
 238.176857 1  2016            Rx   d 8  42 144 145  80 136  47 143 255  Length = 227891 BitCount = 118 ID = 2016
 238.177090 1  2016            Rx   d 8  43 207 241 150 241 217  34   8  Length = 223891 BitCount = 116 ID = 2016
 238.177326 1  2016            Rx   d 8  44  13  89 255  12 144  25 255  Length = 227892 BitCount = 118 ID = 2016
 238.177560 1  2016            Rx   d 8  45  12 144  25 255  12 144 143  Length = 225892 BitCount = 117 ID = 2016
 238.177798 1  2016            Rx   d 8  46 255 207 241 150 242  89 255  Length = 229892 BitCount = 119 ID = 2016
 238.178032 1  2016            Rx   d 8  47  12 144  25 255  12 144 130  Length = 225891 BitCount = 117 ID = 2016
 238.178271 1  2016            Rx   d 8  32  31 108  32 145  80 136  47  Length = 229891 BitCount = 119 ID = 2016
 238.178505 1  2016            Rx   d 8  33 217  34   0  13 108  32 145  Length = 225891 BitCount = 117 ID = 2016
 238.178741 1  2016            Rx   d 8  34  80 136  47 217  34   4  13  Length = 227892 BitCount = 118 ID = 2016
 238.178979 1  2016            Rx   d 8  35 108  32  25 255  12 144 143  Length = 229892 BitCount = 119 ID = 2016
 238.179217 1  2016            Rx   d 8  36 255 207 241 150 241  89 255  Length = 229892 BitCount = 119 ID = 2016
 238.179452 1  2016            Rx   d 8  37  12 144  25 255  12 144  25  Length = 225892 BitCount = 117 ID = 2016
 238.179690 1  2016            Rx   d 8  38 255  12 144 143 255 207 241  Length = 229892 BitCount = 119 ID = 2016
 238.179922 1  2016            Rx   d 8  39 150 243  89 255  12 144  25  Length = 223891 BitCount = 116 ID = 2016
 238.188598 1  2016            Rx   d 8  40 255  12 144 145  80 136 255  Length = 227892 BitCount = 118 ID = 2016
 238.188840 1  2016            Rx   d 8  41 217 255   0  13   0   0  76  Length = 233892 BitCount = 121 ID = 2016
 238.189079 1  2016            Rx   d 8  42 240 111  47 254 127 123  32  Length = 229892 BitCount = 119 ID = 2016
 238.189315 1  2016            Rx   d 8  43   1 248  27 207   6 246 145  Length = 227892 BitCount = 118 ID = 2016
 238.189555 1  2016            Rx   d 8  44  96 136 255 217 255 200 143  Length = 231891 BitCount = 120 ID = 2016
 238.189795 1  2016            Rx   d 8  45 104  15 145  96 136 255 217  Length = 231891 BitCount = 120 ID = 2016
 238.190029 1  2016            Rx   d 8  46 255 212 143  76 240 183  15  Length = 225891 BitCount = 117 ID = 2016
 238.190270 1  2016            Rx   d 8  47   1 252 104  15 145 128 136  Length = 231891 BitCount = 120 ID = 2016
 238.190510 1  2016            Rx   d 8  32 255 217 255 212 143  76 240  Length = 231891 BitCount = 120 ID = 2016
 238.190748 1  2016            Rx   d 8  33 239 143  66 128 145  48   0  Length = 229891 BitCount = 119 ID = 2016
 238.190990 1  2016            Rx   d 8  34 255 217 255   0   6  25 255  Length = 233891 BitCount = 121 ID = 2016
 238.191222 1  2016            Rx   d 8  35  12 144 145 112 136  47 143  Length = 223891 BitCount = 116 ID = 2016
 238.191457 1  2016            Rx   d 8  36 255 207 241 150 241 217  34  Length = 225883 BitCount = 117 ID = 2016
 238.191693 1  2016            Rx   d 8  37   8  13  89 255  12 144  25  Length = 227892 BitCount = 118 ID = 2016
 238.191933 1  2016            Rx   d 8  38 255  12 144  25 255  12 144  Length = 231892 BitCount = 120 ID = 2016
 238.192167 1  2016            Rx   d 8  39 143 255 207 241 150 242  89  Length = 225892 BitCount = 117 ID = 2016
 238.192401 1  2016            Rx   d 8  40 255  12 144  25 255  12 144  Length = 225892 BitCount = 117 ID = 2016
 238.192636 1  2016            Rx   d 8  41 130  31 108  32 145 112 136  Length = 225892 BitCount = 117 ID = 2016
 238.192874 1  2016            Rx   d 8  42  47 217  34   0  13 108  32  Length = 229892 BitCount = 119 ID = 2016
 238.193112 1  2016            Rx   d 8  43 145 112 136  47 217  34   4  Length = 229891 BitCount = 119 ID = 2016
 238.193348 1  2016            Rx   d 8  44  13 108  32  25 255  12 144  Length = 227891 BitCount = 118 ID = 2016
 238.193583 1  2016            Rx   d 8  45 143 255 207 241 150 241  89  Length = 225892 BitCount = 117 ID = 2016
 238.193819 1  2016            Rx   d 8  46 255  12 144  25 255  12 144  Length = 227883 BitCount = 118 ID = 2016
 238.194053 1  2016            Rx   d 8  47  25 255  12 144 143 255 207  Length = 225883 BitCount = 117 ID = 2016
 238.194289 1  2016            Rx   d 8  32 241 150 243  89 255  12 144  Length = 227891 BitCount = 118 ID = 2016
 238.194521 1  2016            Rx   d 8  33  25 255  12 144 145 112 136  Length = 223892 BitCount = 116 ID = 2016
 238.194766 1  2016            Rx   d 8  34 255 217 255   0  13   0   0  Length = 235892 BitCount = 122 ID = 2016
 238.195002 1  2016            Rx   d 8  35  76 240 111  47 254 127 123  Length = 227891 BitCount = 118 ID = 2016
 238.195240 1  2016            Rx   d 8  36  32   1 248  27 143  13 246  Length = 229891 BitCount = 119 ID = 2016
 238.195480 1  2016            Rx   d 8  37 145 128 136 255 217 255 200  Length = 231891 BitCount = 120 ID = 2016
 238.195716 1  2016            Rx   d 8  38 143 104  15 145 128 136 255  Length = 227891 BitCount = 118 ID = 2016
 238.195955 1  2016            Rx   d 8  39 217 255 212 143  76 240 183  Length = 229891 BitCount = 119 ID = 2016
 238.196193 1  2016            Rx   d 8  40  15   1 252 104  15  29   4  Length = 229891 BitCount = 119 ID = 2016
 238.196427 1  2016            Rx   d 8  41 141  46   0   0  73 187 120  Length = 225883 BitCount = 117 ID = 2016
 238.196673 1  2016            Rx   d 8  42 191   0   0   0   0  32   8  Length = 237883 BitCount = 123 ID = 2016
 238.196909 1  2016            Rx   d 8  43  77 192 225 255 123 192   3  Length = 227892 BitCount = 118 ID = 2016
 238.197142 1  2016            Rx   d 8  44  40  27   2  21  43  19  79  Length = 223892 BitCount = 116 ID = 2016
 238.197374 1  2016            Rx   d 8  45  33  50  96  50 204  32  77  Length = 223892 BitCount = 116 ID = 2016
 238.197616 1  2016            Rx   d 8  46 192 226 159  13   0  64   3  Length = 233892 BitCount = 121 ID = 2016
 238.197858 1  2016            Rx   d 8  47 187 208   3 248 205 207 226  Length = 233892 BitCount = 121 ID = 2016
 238.198094 1  2016            Rx   d 8  32  15  13   0 192   4  72 170  Length = 227892 BitCount = 118 ID = 2016
 238.198331 1  2016            Rx   d 8  33  76 249 110  21   2 159  22  Length = 227892 BitCount = 118 ID = 2016
 238.198565 1  2016            Rx   d 8  34 255 238  29 200 147 130 104  Length = 225891 BitCount = 117 ID = 2016
 238.198797 1  2016            Rx   d 8  35 212  51  57  63  22   0 238  Length = 223891 BitCount = 116 ID = 2016
 238.199031 1  2016            Rx   d 8  36  24 200 147  76  51 104 175  Length = 225891 BitCount = 117 ID = 2016
 238.199265 1  2016            Rx   d 8  37 200 147  76  56 110   6 200  Length = 225892 BitCount = 117 ID = 2016
 238.199500 1  2016            Rx   d 8  38 147 153  51  32   0  76  51  Length = 225892 BitCount = 117 ID = 2016
 238.199730 1  2016            Rx   d 8  39 104 175  76 247  72 162 127  Length = 221892 BitCount = 115 ID = 2016
 238.199968 1  2016            Rx   d 8  40 242   6 128 153  34  12   0  Length = 229891 BitCount = 119 ID = 2016
 238.208136 1  2016            Rx   d 8  41  45   2   0   0 104 170 130  Length = 231892 BitCount = 120 ID = 2016
 238.208382 1  2016            Rx   d 8  42   8  60  10 130  40 130  15  Length = 237892 BitCount = 123 ID = 2016
 238.208617 1  2016            Rx   d 8  43   2 132  59 144   3  80 210  Length = 225892 BitCount = 117 ID = 2016
 238.208855 1  2016            Rx   d 8  44   6 120   0 109   0 113   8  Length = 229883 BitCount = 119 ID = 2016
 238.209093 1  2016            Rx   d 8  45 205 201 226  15  13   0 192  Length = 229883 BitCount = 119 ID = 2016
 238.209333 1  2016            Rx   d 8  46   4   2 130   0 144 145 192  Length = 231883 BitCount = 120 ID = 2016
 238.209569 1  2016            Rx   d 8  47   3 248 153 255  16  91 109  Length = 227891 BitCount = 118 ID = 2016
 238.209810 1  2016            Rx   d 8  32   0  93  29   2  47 130   2  Length = 231891 BitCount = 120 ID = 2016
 238.210038 1  2016            Rx   d 8  33 200 188  72 168  72 156  57  Length = 219891 BitCount = 114 ID = 2016
 238.210276 1  2016            Rx   d 8  34 251   1  16 233 242   1  16  Length = 229891 BitCount = 119 ID = 2016
 238.210512 1  2016            Rx   d 8  35  25 194   4   0  84 195  82  Length = 227891 BitCount = 118 ID = 2016
 238.210748 1  2016            Rx   d 8  36  34  66  35  57 250   0  16  Length = 227891 BitCount = 118 ID = 2016
 238.210983 1  2016            Rx   d 8  37 145   0   0 215 116 195  25  Length = 225892 BitCount = 117 ID = 2016
 238.211221 1  2016            Rx   d 8  38 195  12   0 123   0   0 151  Length = 229892 BitCount = 119 ID = 2016
 238.211457 1  2016            Rx   d 8  39  66  50 123 192   3 232 217  Length = 227891 BitCount = 118 ID = 2016
 238.211693 1  2016            Rx   d 8  40 221  44 231  89 194  12   0  Length = 227892 BitCount = 118 ID = 2016
 238.211925 1  2016            Rx   d 8  41 108 193  27  73 225 150  27  Length = 223892 BitCount = 116 ID = 2016
 238.212160 1  2016            Rx   d 8  42 206 183 234  64 222  96 148  Length = 225892 BitCount = 117 ID = 2016
 238.212398 1  2016            Rx   d 8  43 109   0 100  11 223   2 253  Length = 229892 BitCount = 119 ID = 2016
 238.212636 1  2016            Rx   d 8  44 255 145   0   0  55 217  50  Length = 229892 BitCount = 119 ID = 2016
 238.212872 1  2016            Rx   d 8  45 252 118  25  34  28   0  15  Length = 227892 BitCount = 118 ID = 2016
 238.213108 1  2016            Rx   d 8  46   2 176  33  83 130  61  32  Length = 227892 BitCount = 118 ID = 2016
 238.213345 1  2016            Rx   d 8  47  27 130  77  32  66 226 104  Length = 227892 BitCount = 118 ID = 2016
 238.213579 1  2016            Rx   d 8  32 146 200 146  25  34  32   0  Length = 225891 BitCount = 117 ID = 2016
 238.213815 1  2016            Rx   d 8  33 223   2  46   0 200 146 153  Length = 227891 BitCount = 118 ID = 2016
 238.214055 1  2016            Rx   d 8  34  34  32   0  25  34   8   0  Length = 231891 BitCount = 120 ID = 2016
 238.214288 1  2016            Rx   d 8  35   1 210   2  38 212  34  84  Length = 223892 BitCount = 116 ID = 2016
 238.214518 1  2016            Rx   d 8  36  34 104 146 200 146 200 147  Length = 221891 BitCount = 115 ID = 2016
 238.214750 1  2016            Rx   d 8  37 200 148 153  34  32   0 153  Length = 223891 BitCount = 116 ID = 2016
 238.214988 1  2016            Rx   d 8  38  51  32   0 153  68  32   0  Length = 229892 BitCount = 119 ID = 2016
 238.215228 1  2016            Rx   d 8  39  25  36   8   0  25  50   8  Length = 231892 BitCount = 120 ID = 2016
 238.215465 1  2016            Rx   d 8  40   0   1 210   2  54  25  66  Length = 227892 BitCount = 118 ID = 2016
 238.215701 1  2016            Rx   d 8  41   4   0  84  51 200 147 153  Length = 227891 BitCount = 118 ID = 2016
 238.215939 1  2016            Rx   d 8  42  51  32   0  95  35   4 128  Length = 229891 BitCount = 119 ID = 2016
 238.216173 1  2016            Rx   d 8  43  84  50  60   7  25  50   8  Length = 225891 BitCount = 117 ID = 2016
 238.216409 1  2016            Rx   d 8  44   0   1 210   2  54  84  50  Length = 227891 BitCount = 118 ID = 2016
 238.216642 1  2016            Rx   d 8  45 194  66   1 228   2  38 116  Length = 223891 BitCount = 116 ID = 2016
 238.216880 1  2016            Rx   d 8  46  34 130   2 145   0   0  55  Length = 229891 BitCount = 119 ID = 2016
 238.217114 1  2016            Rx   d 8  47 217  50 252 118  89  34  24  Length = 225892 BitCount = 117 ID = 2016
 238.217354 1  2016            Rx   d 8  32   0  13   0 128   4 200 146  Length = 231892 BitCount = 120 ID = 2016
 238.217586 1  2016            Rx   d 8  33 212  34 233  34  22   0 200  Length = 223892 BitCount = 116 ID = 2016
 238.217819 1  2016            Rx   d 8  34 146  25  35  16   0 104 163  Length = 223892 BitCount = 116 ID = 2016
 238.218049 1  2016            Rx   d 8  35 200 146  57  35  37   0 145  Length = 221892 BitCount = 115 ID = 2016
 238.218283 1  2016            Rx   d 8  36 192   3  40 217  34   4  91  Length = 225892 BitCount = 117 ID = 2016
 238.218519 1  2016            Rx   d 8  37   1  35   1  38  57  35   1  Length = 227892 BitCount = 118 ID = 2016
 238.218761 1  2016            Rx   d 8  38   0 200 146 233 243   0  16  Length = 233892 BitCount = 121 ID = 2016
 238.218994 1  2016            Rx   d 8  39 200 148 212  34 217  35   4  Length = 223883 BitCount = 116 ID = 2016
 238.219226 1  2016            Rx   d 8  40   0 232 179 108  34  89  34  Length = 223891 BitCount = 116 ID = 2016
 238.219464 1  2016            Rx   d 8  41   4   0 109   0 137  31 187  Length = 229891 BitCount = 119 ID = 2016
 238.226290 1  2016            Rx   d 8  42   0   0 248 205 207 226  15  Length = 233883 BitCount = 121 ID = 2016
 238.226526 1  2016            Rx   d 8  43  13   0 192   4 200 146 153  Length = 227883 BitCount = 118 ID = 2016
 238.226769 1  2016            Rx   d 8  44  34   4   0  45   2   0   0  Length = 233891 BitCount = 121 ID = 2016
 238.227007 1  2016            Rx   d 8  45  13   0  64   3 187 208   3  Length = 229904 BitCount = 119 ID = 2016
 238.227247 1  2016            Rx   d 8  46 248 205 207 226  15  13   0  Length = 231892 BitCount = 120 ID = 2016
 238.227483 1  2016            Rx   d 8  47 192   4 109   0 183  28 200  Length = 227891 BitCount = 118 ID = 2016
 238.227721 1  2016            Rx   d 8  32 178   2  47  25  35   4   0  Length = 229891 BitCount = 119 ID = 2016
 238.228030 1  2016            Rx   d 8  33  84  34  25  36  12   0  82  Length = 225892 BitCount = 117 ID = 2016
 238.228260 1  2016            Rx   d 8  34  51  66  50  66  67 108  33  Length = 221892 BitCount = 115 ID = 2016
 238.228494 1  2016            Rx   d 8  35 116  34  89  35  12   0  25  Length = 225883 BitCount = 117 ID = 2016
 238.228732 1  2016            Rx   d 8  36  35   8   0 127  35   4 128  Length = 229891 BitCount = 119 ID = 2016
 238.228966 1  2016            Rx   d 8  37  89  34   8   0 200 148 109  Length = 225891 BitCount = 117 ID = 2016
 238.229205 1  2016            Rx   d 8  38   0  99  31  96 148 109   0  Length = 229891 BitCount = 119 ID = 2016
 238.229447 1  2016            Rx   d 8  39 203  10 223   2 253 255 200  Length = 233891 BitCount = 121 ID = 2016
 238.229679 1  2016            Rx   d 8  40 146 212  34  57  34  21   0  Length = 223891 BitCount = 116 ID = 2016
 238.229909 1  2016            Rx   d 8  41 194 242 233  34  21   0 200  Length = 221891 BitCount = 115 ID = 2016
 238.230139 1  2016            Rx   d 8  42 146 212  34  57  34  21   0  Length = 221892 BitCount = 115 ID = 2016
 238.230378 1  2016            Rx   d 8  43 246  46 145   0   0  55 217  Length = 229892 BitCount = 119 ID = 2016
 238.230612 1  2016            Rx   d 8  44  50 252 118  25  34  28   0  Length = 225892 BitCount = 117 ID = 2016
 238.230850 1  2016            Rx   d 8  45 200 147  25  51   8   0  15  Length = 229891 BitCount = 119 ID = 2016
 238.231088 1  2016            Rx   d 8  46  50 224  32  89  34  28   0  Length = 229891 BitCount = 119 ID = 2016
 238.231326 1  2016            Rx   d 8  47  25 242  16  16 223   2  99  Length = 229891 BitCount = 119 ID = 2016
 238.231567 1  2016            Rx   d 8  32   0 153 242  16  16 130  18  Length = 231891 BitCount = 120 ID = 2016
 238.231801 1  2016            Rx   d 8  33 212  34 233  34  20   0 153  Length = 225891 BitCount = 117 ID = 2016
 238.232035 1  2016            Rx   d 8  34 242  16  16  84  45 109   0  Length = 225891 BitCount = 117 ID = 2016
 238.232267 1  2016            Rx   d 8  35 115  28  96 210 116  34 153  Length = 223892 BitCount = 116 ID = 2016
 238.232497 1  2016            Rx   d 8  36 242  16  16 212  34  57  34  Length = 221892 BitCount = 115 ID = 2016
 238.232728 1  2016            Rx   d 8  37  21   0 194  18 233  34  21  Length = 221892 BitCount = 115 ID = 2016
 238.232964 1  2016            Rx   d 8  38   0 153 242  16  16  25  34  Length = 227891 BitCount = 118 ID = 2016
 238.233210 1  2016            Rx   d 8  39  32   0 223   2  56   0 153  Length = 237891 BitCount = 123 ID = 2016
 238.233444 1  2016            Rx   d 8  40 242  16  16 153  34  32   0  Length = 225892 BitCount = 117 ID = 2016
 238.233684 1  2016            Rx   d 8  41  25  34   8   0   1 210   2  Length = 231883 BitCount = 120 ID = 2016
 238.233917 1  2016            Rx   d 8  42  38  25 242  16  16 153  34  Length = 223891 BitCount = 116 ID = 2016
 238.234155 1  2016            Rx   d 8  43   4   0 116  34 153 242  16  Length = 229891 BitCount = 119 ID = 2016
 238.234391 1  2016            Rx   d 8  44  16 153 243  16  16 153 244  Length = 227892 BitCount = 118 ID = 2016
 238.234625 1  2016            Rx   d 8  45  16  16 153  34  32   0 153  Length = 225892 BitCount = 117 ID = 2016
 238.234862 1  2016            Rx   d 8  46  51  32   0 153  68  32   0  Length = 227891 BitCount = 118 ID = 2016
 238.235100 1  2016            Rx   d 8  47  25  36   8   0  25  50   8  Length = 229891 BitCount = 119 ID = 2016
 238.235336 1  2016            Rx   d 8  32   0 194  20   1 210   2  54  Length = 227891 BitCount = 118 ID = 2016
 238.235572 1  2016            Rx   d 8  33  25  66   4   0  25  51   4  Length = 227891 BitCount = 118 ID = 2016
 238.235808 1  2016            Rx   d 8  34   0 153 243  16  16 153  51  Length = 227891 BitCount = 118 ID = 2016
 238.236049 1  2016            Rx   d 8  35  32   0  95  35   4 128  84  Length = 231891 BitCount = 120 ID = 2016
 238.236289 1  2016            Rx   d 8  36  50  60   8  25  50   8   0  Length = 231892 BitCount = 120 ID = 2016
 238.236523 1  2016            Rx   d 8  37   1 210   2  54  25  50   4  Length = 225892 BitCount = 117 ID = 2016
 238.236759 1  2016            Rx   d 8  38   0 194  66   1 228   2  38  Length = 227892 BitCount = 118 ID = 2016
 238.236995 1  2016            Rx   d 8  39 116  34 145   0   0  55 217  Length = 227892 BitCount = 118 ID = 2016
 238.237236 1  2016            Rx   d 8  40  50 252 118  25  35  28   0  Length = 231892 BitCount = 120 ID = 2016
 238.237474 1  2016            Rx   d 8  41 153 243  16  16  25  50   8  Length = 229892 BitCount = 119 ID = 2016
 238.237710 1  2016            Rx   d 8  42   0 166  50  89  34  28   0  Length = 227892 BitCount = 118 ID = 2016
 238.237948 1  2016            Rx   d 8  43 130   2  89 242  16  16 130  Length = 229883 BitCount = 119 ID = 2016
 238.238186 1  2016            Rx   d 8  44   2 145   0   0  55 217  50  Length = 229883 BitCount = 119 ID = 2016
 238.238423 1  2016            Rx   d 8  45 252 118  89  34  24   0  13  Length = 227891 BitCount = 118 ID = 2016
 238.238663 1  2016            Rx   d 8  46   0 128   4  25  34  28   0  Length = 231891 BitCount = 120 ID = 2016
 238.238895 1  2016            Rx   d 8  47  63  40 217 254 104 168 233  Length = 223891 BitCount = 116 ID = 2016
 238.239135 1  2016            Rx   d 8  32 251   1  16 104 156 233 250  Length = 231891 BitCount = 120 ID = 2016
 238.239371 1  2016            Rx   d 8  33   0  16 232 188 108 193   0  Length = 227891 BitCount = 118 ID = 2016
 238.239608 1  2016            Rx   d 8  34 144 145 192   3 248 217 255  Length = 227891 BitCount = 118 ID = 2016
 238.239848 1  2016            Rx   d 8  35  16  91 200  95 109   0   0  Length = 231892 BitCount = 120 ID = 2016
 238.240088 1  2016            Rx   d 8  36  28   2  47 130   2 200 188  Length = 231892 BitCount = 120 ID = 2016
 238.240320 1  2016            Rx   d 8  37  72 168  72 156  57 251   1  Length = 223891 BitCount = 116 ID = 2016
 238.240556 1  2016            Rx   d 8  38  16 233 242   1  16  25 194  Length = 227892 BitCount = 118 ID = 2016
 238.240791 1  2016            Rx   d 8  39   4   0  84 195  82  34  66  Length = 225892 BitCount = 117 ID = 2016
 238.241029 1  2016            Rx   d 8  40  35  57 250   0  16 145   0  Length = 229892 BitCount = 119 ID = 2016
 238.241259 1  2016            Rx   d 8  41   0 215 116 195  25 195  12  Length = 221892 BitCount = 115 ID = 2016
 238.241499 1  2016            Rx   d 8  42   0 123  48   0 150  66  50  Length = 231892 BitCount = 120 ID = 2016
 238.241733 1  2016            Rx   d 8  43 123 192   3 232 217 221  44  Length = 225892 BitCount = 117 ID = 2016
 238.241970 1  2016            Rx   d 8  44 231  89 194  12   0 108 193  Length = 227892 BitCount = 118 ID = 2016
 238.242200 1  2016            Rx   d 8  45  27 201 183 156  27 206 148  Length = 221892 BitCount = 115 ID = 2016
 238.242436 1  2016            Rx   d 8  46 234  64 222  96 148 109   0  Length = 227891 BitCount = 118 ID = 2016
 238.242676 1  2016            Rx   d 8  47   7  10 223   2 253 255 145  Length = 231891 BitCount = 120 ID = 2016
 238.242914 1  2016            Rx   d 8  32  48   0  54 217  50 164 220  Length = 229891 BitCount = 119 ID = 2016
 238.243151 1  2016            Rx   d 8  33  25  34  28   0  15   2 176  Length = 227904 BitCount = 118 ID = 2016
 238.243389 1  2016            Rx   d 8  34  33  83 130  61  32  27 130  Length = 229891 BitCount = 119 ID = 2016
 238.243619 1  2016            Rx   d 8  35  77  32  66 226 104 146 200  Length = 221891 BitCount = 115 ID = 2016
 238.243855 1  2016            Rx   d 8  36 146  25  34  32   0 223   2  Length = 227892 BitCount = 118 ID = 2016
 238.244087 1  2016            Rx   d 8  37  46   0 200 146 153  34  32  Length = 223892 BitCount = 116 ID = 2016
 238.244328 1  2016            Rx   d 8  38   0  25  34   8   0   1 210  Length = 231892 BitCount = 120 ID = 2016
 238.244560 1  2016            Rx   d 8  39   2  38 212  34  84  34 104  Length = 223891 BitCount = 116 ID = 2016
 238.244792 1  2016            Rx   d 8  40 146 200 146 200 147 200 148  Length = 223891 BitCount = 116 ID = 2016
 238.245026 1  2016            Rx   d 8  41 153  34  32   0 153  51  32  Length = 225891 BitCount = 117 ID = 2016
 238.245262 1  2016            Rx   d 8  42   0 153  68  32   0  25  36  Length = 227891 BitCount = 118 ID = 2016
 238.245503 1  2016            Rx   d 8  43   8   0  25  50   8   0   1  Length = 231891 BitCount = 120 ID = 2016
 238.245743 1  2016            Rx   d 8  44 210   2  54  25  66   4   0  Length = 231891 BitCount = 120 ID = 2016
 238.245973 1  2016            Rx   d 8  45  84  51 200 147 153  51  32  Length = 221892 BitCount = 115 ID = 2016
 238.246211 1  2016            Rx   d 8  46   0  95  35   4 128  84  50  Length = 229892 BitCount = 119 ID = 2016
 238.246449 1  2016            Rx   d 8  47  60   7  25  50   8   0   1  Length = 229892 BitCount = 119 ID = 2016
 238.246684 1  2016            Rx   d 8  32 210   2  54  84  50 194  66  Length = 225892 BitCount = 117 ID = 2016
 238.246918 1  2016            Rx   d 8  33   1 228   2  38 116  34 130  Length = 225892 BitCount = 117 ID = 2016
 238.247152 1  2016            Rx   d 8  34   2 145  48   0  54 217  50  Length = 225892 BitCount = 117 ID = 2016
 238.247386 1  2016            Rx   d 8  35 164 220  89  34  24   0  13  Length = 225892 BitCount = 117 ID = 2016
 238.247622 1  2016            Rx   d 8  36   0 128   4 200 146 212  34  Length = 227883 BitCount = 118 ID = 2016
 238.247853 1  2016            Rx   d 8  37 233  34  22   0 200 146  25  Length = 221891 BitCount = 115 ID = 2016
 238.248085 1  2016            Rx   d 8  38  35  16   0 104 163 200 146  Length = 223892 BitCount = 116 ID = 2016
 238.248319 1  2016            Rx   d 8  39  57  35  37   0 145 192   3  Length = 225892 BitCount = 117 ID = 2016
 238.248557 1  2016            Rx   d 8  40  40 217  34   4  91   1  35  Length = 229891 BitCount = 119 ID = 2016
 238.248791 1  2016            Rx   d 8  41   1  38  57  35   1   0 200  Length = 225891 BitCount = 117 ID = 2016
 238.249028 1  2016            Rx   d 8  42 146 233 243   0  16 200 148  Length = 227891 BitCount = 118 ID = 2016
 238.249262 1  2016            Rx   d 8  43 212  34 217  35   4   0 232  Length = 225892 BitCount = 117 ID = 2016
 238.249496 1  2016            Rx   d 8  44 179 108  34  89  34   4   0  Length = 225892 BitCount = 117 ID = 2016
 238.249740 1  2016            Rx   d 8  45 109   0  44  30 187   0   0  Length = 235892 BitCount = 122 ID = 2016
 238.249980 1  2016            Rx   d 8  46 248 205 207 226  15  13   0  Length = 231891 BitCount = 120 ID = 2016
 238.250219 1  2016            Rx   d 8  47 192   4 200 146 153  34   4  Length = 229891 BitCount = 119 ID = 2016
 238.250465 1  2016            Rx   d 8  32   0  45   2   0   0  13   0  Length = 237904 BitCount = 123 ID = 2016
 238.250703 1  2016            Rx   d 8  33  64   3 187 208   3 248 205  Length = 229891 BitCount = 119 ID = 2016
 238.250947 1  2016            Rx   d 8  34 207 226  15  13   0 192   4  Length = 235891 BitCount = 122 ID = 2016
 238.251181 1  2016            Rx   d 8  35 109   0  90  27 200 178   2  Length = 225891 BitCount = 117 ID = 2016
 238.251418 1  2016            Rx   d 8  36  47  25  35   4   0  84  34  Length = 227892 BitCount = 118 ID = 2016
 238.251654 1  2016            Rx   d 8  37  25  36  12   0  82  51  66  Length = 227892 BitCount = 118 ID = 2016
 238.251882 1  2016            Rx   d 8  38  50  66  67 108  33 116  34  Length = 219892 BitCount = 114 ID = 2016
 238.252116 1  2016            Rx   d 8  39  89  35  12   0  25  35   8  Length = 225892 BitCount = 117 ID = 2016
 238.252357 1  2016            Rx   d 8  40   0 127  35   4 128  89  34  Length = 231892 BitCount = 120 ID = 2016
 238.252595 1  2016            Rx   d 8  41   8   0 200 148 109   0   6  Length = 229892 BitCount = 119 ID = 2016
 238.252829 1  2016            Rx   d 8  42  30  96 148 109   0 110   9  Length = 225891 BitCount = 117 ID = 2016
 238.253069 1  2016            Rx   d 8  43 223   2 253 255 200 146 212  Length = 231891 BitCount = 120 ID = 2016
 238.253299 1  2016            Rx   d 8  44  34  57  34  21   0 194 242  Length = 221891 BitCount = 115 ID = 2016
 238.253530 1  2016            Rx   d 8  45 233  34  21   0 200 146 212  Length = 221891 BitCount = 115 ID = 2016
 238.253760 1  2016            Rx   d 8  46  34  57  34  21   0 246  46  Length = 221891 BitCount = 115 ID = 2016
 238.253994 1  2016            Rx   d 8  47 145  48   0  54 217  50 164  Length = 225891 BitCount = 117 ID = 2016
 238.254230 1  2016            Rx   d 8  32 220  25  34  28   0 200 147  Length = 227891 BitCount = 118 ID = 2016
 238.254470 1  2016            Rx   d 8  33  25  51   8   0  15  50 224  Length = 231891 BitCount = 120 ID = 2016
 238.254709 1  2016            Rx   d 8  34  32  89  34  28   0  25 242  Length = 229891 BitCount = 119 ID = 2016
 238.254945 1  2016            Rx   d 8  35  16  16 223   2  99   0 153  Length = 227892 BitCount = 118 ID = 2016
 238.255179 1  2016            Rx   d 8  36 242  16  16 130  18 212  34  Length = 225892 BitCount = 117 ID = 2016
 238.255415 1  2016            Rx   d 8  37 233  34  20   0 153 242  16  Length = 227891 BitCount = 118 ID = 2016
 238.255649 1  2016            Rx   d 8  38  16  84  45 109   0  22  27  Length = 225892 BitCount = 117 ID = 2016
 238.255884 1  2016            Rx   d 8  39  96 210 116  34 153 242  16  Length = 225892 BitCount = 117 ID = 2016
 238.256118 1  2016            Rx   d 8  40  16 212  34  57  34  21   0  Length = 225892 BitCount = 117 ID = 2016
 238.256350 1  2016            Rx   d 8  41 194  18 233  34  21   0 153  Length = 223892 BitCount = 116 ID = 2016
 238.256590 1  2016            Rx   d 8  42 242  16  16  25  34  32   0  Length = 231892 BitCount = 120 ID = 2016
 238.256828 1  2016            Rx   d 8  43 223   2  56   0 153 242  16  Length = 229892 BitCount = 119 ID = 2016
 238.257065 1  2016            Rx   d 8  44  16 153  34  32   0  25  34  Length = 227883 BitCount = 118 ID = 2016
 238.257303 1  2016            Rx   d 8  45   8   0   1 210   2  38  25  Length = 229883 BitCount = 119 ID = 2016
 238.257539 1  2016            Rx   d 8  46 242  16  16 153  34   4   0  Length = 227891 BitCount = 118 ID = 2016
 238.257771 1  2016            Rx   d 8  47 116  34 153 242  16  16 153  Length = 223891 BitCount = 116 ID = 2016
 238.258011 1  2016            Rx   d 8  32 243  16  16 153 244  16  16  Length = 231891 BitCount = 120 ID = 2016
 238.258248 1  2016            Rx   d 8  33 153  34  32   0 153  51  32  Length = 227891 BitCount = 118 ID = 2016
 238.258486 1  2016            Rx   d 8  34   0 153  68  32   0  25  36  Length = 229891 BitCount = 119 ID = 2016
 238.258724 1  2016            Rx   d 8  35   8   0  25  50   8   0 194  Length = 229891 BitCount = 119 ID = 2016
 238.258958 1  2016            Rx   d 8  36  20   1 210   2  54  25  66  Length = 225892 BitCount = 117 ID = 2016
 238.259198 1  2016            Rx   d 8  37   4   0  25  51   4   0 153  Length = 231892 BitCount = 120 ID = 2016
 238.259435 1  2016            Rx   d 8  38 243  16  16 153  51  32   0  Length = 227892 BitCount = 118 ID = 2016
 238.259669 1  2016            Rx   d 8  39  95  35   4 128  84  50  60  Length = 225891 BitCount = 117 ID = 2016
 238.259909 1  2016            Rx   d 8  40   8  25  50   8   0   1 210  Length = 231891 BitCount = 120 ID = 2016
 238.260145 1  2016            Rx   d 8  41   2  54  25  50   4   0 194  Length = 227891 BitCount = 118 ID = 2016
 238.260377 1  2016            Rx   d 8  42  66   1 228   2  38 116  34  Length = 223891 BitCount = 116 ID = 2016
 238.260614 1  2016            Rx   d 8  43 145  48   0  54 217  50 164  Length = 227891 BitCount = 118 ID = 2016
 238.260850 1  2016            Rx   d 8  44 220  25  35  28   0 153 243  Length = 227891 BitCount = 118 ID = 2016
 238.261090 1  2016            Rx   d 8  45  16  16  25  50   8   0 166  Length = 231892 BitCount = 120 ID = 2016
 238.261326 1  2016            Rx   d 8  46  50  89  34  28   0 130   2  Length = 227892 BitCount = 118 ID = 2016
 238.261564 1  2016            Rx   d 8  47  89 242  16  16 130   2 145  Length = 229892 BitCount = 119 ID = 2016
 238.261803 1  2016            Rx   d 8  32  48   0  54 217  50 164 220  Length = 229891 BitCount = 119 ID = 2016
 238.262041 1  2016            Rx   d 8  33  89  34  24   0  13   0 128  Length = 229891 BitCount = 119 ID = 2016
 238.262281 1  2016            Rx   d 8  34   4  25  34  28   0  63  40  Length = 231891 BitCount = 120 ID = 2016
 238.262515 1  2016            Rx   d 8  35 217 254 104 168 233 251   1  Length = 225892 BitCount = 117 ID = 2016
 238.262755 1  2016            Rx   d 8  36  16 104 156 233 250   0  16  Length = 231892 BitCount = 120 ID = 2016
 238.262988 1  2016            Rx   d 8  37 232 188 108 193   0 144 145  Length = 223892 BitCount = 116 ID = 2016
 238.263228 1  2016            Rx   d 8  38 192   3 248 217 255  16  91  Length = 231892 BitCount = 120 ID = 2016
 238.263462 1  2016            Rx   d 8  39 200 175 109   0 163  26   2  Length = 225892 BitCount = 117 ID = 2016
 238.263698 1  2016            Rx   d 8  40  47 130   2 200 188  72 168  Length = 227891 BitCount = 118 ID = 2016
 238.263930 1  2016            Rx   d 8  41  72 156  57 251   1  16 233  Length = 223891 BitCount = 116 ID = 2016
 238.264171 1  2016            Rx   d 8  42 242   1  16  25 194   4   0  Length = 231891 BitCount = 120 ID = 2016
 238.264401 1  2016            Rx   d 8  43  84 195  82  34  66  35  57  Length = 221891 BitCount = 115 ID = 2016
 238.264641 1  2016            Rx   d 8  44 250   0  16 145   0   0 215  Length = 231891 BitCount = 120 ID = 2016
 238.264873 1  2016            Rx   d 8  45 116 195  25 195  12   0 123  Length = 223891 BitCount = 116 ID = 2016
 238.265109 1  2016            Rx   d 8  46   0   0 149  66  50 123 192  Length = 227883 BitCount = 118 ID = 2016
 238.265342 1  2016            Rx   d 8  47   3 232 217 221  44 231  89  Length = 223883 BitCount = 116 ID = 2016
 238.265580 1  2016            Rx   d 8  32 194  12   0 108 193  27   9  Length = 229892 BitCount = 119 ID = 2016
 238.265816 1  2016            Rx   d 8  33  16 144  27  78 111 234  64  Length = 227892 BitCount = 118 ID = 2016
 238.266054 1  2016            Rx   d 8  34 222  96 148 109   0 170   8  Length = 229892 BitCount = 119 ID = 2016
 238.266298 1  2016            Rx   d 8  35 223   2 253 255 145   0   0  Length = 235892 BitCount = 122 ID = 2016
 238.266531 1  2016            Rx   d 8  36  53 217  50  40  48  25  34  Length = 223892 BitCount = 116 ID = 2016
 238.266767 1  2016            Rx   d 8  37  28   0  15   2 176  33  83  Length = 227892 BitCount = 118 ID = 2016
 238.267003 1  2016            Rx   d 8  38 130  61  32  27 130  77  32  Length = 227892 BitCount = 118 ID = 2016
 238.267231 1  2016            Rx   d 8  39  66 226 104 146 200 146  25  Length = 219891 BitCount = 114 ID = 2016
 238.267471 1  2016            Rx   d 8  40  34  32   0 223   2  46   0  Length = 231891 BitCount = 120 ID = 2016
 238.267708 1  2016            Rx   d 8  41 200 146 153  34  32   0  25  Length = 227891 BitCount = 118 ID = 2016
 238.267946 1  2016            Rx   d 8  42  34   8   0   1 210   2  38  Length = 229892 BitCount = 119 ID = 2016
 238.268174 1  2016            Rx   d 8  43 212  34  84  34 104 146 200  Length = 219892 BitCount = 114 ID = 2016
 238.268402 1  2016            Rx   d 8  44 146 200 147 200 148 153  34  Length = 219891 BitCount = 114 ID = 2016
 238.268638 1  2016            Rx   d 8  45  32   0 153  51  32   0 153  Length = 227892 BitCount = 118 ID = 2016
 238.268881 1  2016            Rx   d 8  46  68  32   0  25  36   8   0  Length = 233892 BitCount = 121 ID = 2016
 238.269121 1  2016            Rx   d 8  47  25  50   8   0   1 210   2  Length = 231891 BitCount = 120 ID = 2016
 238.269359 1  2016            Rx   d 8  32  54  25  66   4   0  84  51  Length = 229891 BitCount = 119 ID = 2016
 238.269593 1  2016            Rx   d 8  33 200 147 153  51  32   0  95  Length = 225883 BitCount = 117 ID = 2016
 238.269829 1  2016            Rx   d 8  34  35   4 128  84  50  60   7  Length = 227883 BitCount = 118 ID = 2016
 238.270070 1  2016            Rx   d 8  35  25  50   8   0   1 210   2  Length = 231892 BitCount = 120 ID = 2016
 238.270302 1  2016            Rx   d 8  36  54  84  50 194  66   1 228  Length = 223892 BitCount = 116 ID = 2016
 238.270536 1  2016            Rx   d 8  37   2  38 116  34 130   2 145  Length = 225904 BitCount = 117 ID = 2016
 238.270774 1  2016            Rx   d 8  38   0   0  53 217  50  40  48  Length = 229892 BitCount = 119 ID = 2016
 238.271012 1  2016            Rx   d 8  39  89  34  24   0  13   0 128  Length = 229892 BitCount = 119 ID = 2016
 238.271243 1  2016            Rx   d 8  40   4 200 146 212  34 233  34  Length = 221892 BitCount = 115 ID = 2016
 238.271477 1  2016            Rx   d 8  41  22   0 200 146  25  35  16  Length = 225892 BitCount = 117 ID = 2016
 238.271709 1  2016            Rx   d 8  42   0 104 163 200 146  57  35  Length = 223892 BitCount = 116 ID = 2016
 238.271945 1  2016            Rx   d 8  43  37   0 145 192   3  40 217  Length = 227883 BitCount = 118 ID = 2016
 238.272181 1  2016            Rx   d 8  44  34   4  91   1  35   1  38  Length = 227883 BitCount = 118 ID = 2016
 238.272414 1  2016            Rx   d 8  45  57  35   1   0 200 146 233  Length = 223883 BitCount = 116 ID = 2016
 238.272648 1  2016            Rx   d 8  46 243   0  16 200 148 212  34  Length = 225891 BitCount = 117 ID = 2016
 238.272884 1  2016            Rx   d 8  47 217  35   4   0 232 179 108  Length = 227891 BitCount = 118 ID = 2016
 238.273122 1  2016            Rx   d 8  32  34  89  34   4   0 109   0  Length = 229891 BitCount = 119 ID = 2016
 238.273358 1  2016            Rx   d 8  33 207  28 187   0   0 248 205  Length = 227891 BitCount = 118 ID = 2016
 238.273603 1  2016            Rx   d 8  34 207 226  15  13   0 192   4  Length = 235891 BitCount = 122 ID = 2016
 238.273839 1  2016            Rx   d 8  35 200 146 153  34   4   0  45  Length = 227891 BitCount = 118 ID = 2016
 238.274083 1  2016            Rx   d 8  36   2   0   0  13   0  64   3  Length = 235892 BitCount = 122 ID = 2016
 238.274319 1  2016            Rx   d 8  37 187 208   3 248 205 207 226  Length = 227892 BitCount = 118 ID = 2016
 238.274564 1  2016            Rx   d 8  38  15  13   0 192   4 109   0  Length = 235892 BitCount = 122 ID = 2016
 238.274798 1  2016            Rx   d 8  39 253  25 200 178   2  47  25  Length = 225891 BitCount = 117 ID = 2016
 238.275036 1  2016            Rx   d 8  40  35   4   0  84  34  25  36  Length = 229891 BitCount = 119 ID = 2016
 238.275268 1  2016            Rx   d 8  41  12   0  82  51  66  50  66  Length = 223891 BitCount = 116 ID = 2016
 238.275498 1  2016            Rx   d 8  42  67 108  33 116  34  89  35  Length = 221891 BitCount = 115 ID = 2016
 238.275739 1  2016            Rx   d 8  43  12   0  25  35   8   0 127  Length = 231891 BitCount = 120 ID = 2016
 238.275977 1  2016            Rx   d 8  44  35   4 128  89  34   8   0  Length = 229891 BitCount = 119 ID = 2016
 238.276209 1  2016            Rx   d 8  45 200 148 109   0 169  28  96  Length = 223892 BitCount = 116 ID = 2016
 238.276445 1  2016            Rx   d 8  46 148 109   0  17   8 223   2  Length = 227892 BitCount = 118 ID = 2016
 238.276681 1  2016            Rx   d 8  47 253 255 200 146 212  34  57  Length = 227892 BitCount = 118 ID = 2016
 238.276914 1  2016            Rx   d 8  32  34  21   0 194 242 233  34  Length = 223892 BitCount = 116 ID = 2016
 238.277144 1  2016            Rx   d 8  33  21   0 200 146 212  34  57  Length = 221892 BitCount = 115 ID = 2016
 238.277376 1  2016            Rx   d 8  34  34  21   0 246  46 145   0  Length = 223883 BitCount = 116 ID = 2016
 238.277612 1  2016            Rx   d 8  35   0  53 217  50  40  48  25  Length = 227892 BitCount = 118 ID = 2016
 238.277844 1  2016            Rx   d 8  36  34  28   0 200 147  25  51  Length = 223904 BitCount = 116 ID = 2016
 238.278085 1  2016            Rx   d 8  37   8   0  15  50 224  32  89  Length = 231892 BitCount = 120 ID = 2016
 238.278325 1  2016            Rx   d 8  38  34  28   0  25 242  16  16  Length = 231891 BitCount = 120 ID = 2016
 238.278565 1  2016            Rx   d 8  39 223   2  99   0 153 242  16  Length = 231891 BitCount = 120 ID = 2016
 238.278797 1  2016            Rx   d 8  40  16 130  18 212  34 233  34  Length = 223891 BitCount = 116 ID = 2016
 238.279035 1  2016            Rx   d 8  41  20   0 153 242  16  16  84  Length = 229891 BitCount = 119 ID = 2016
 238.279270 1  2016            Rx   d 8  42  45 109   0 185  25  96 210  Length = 225883 BitCount = 117 ID = 2016
 238.279504 1  2016            Rx   d 8  43 116  34 153 242  16  16 212  Length = 225892 BitCount = 117 ID = 2016
 238.279736 1  2016            Rx   d 8  44  34  57  34  21   0 194  18  Length = 223892 BitCount = 116 ID = 2016
 238.279968 1  2016            Rx   d 8  45 233  34  21   0 153 242  16  Length = 223892 BitCount = 116 ID = 2016
 238.280206 1  2016            Rx   d 8  46  16  25  34  32   0 223   2  Length = 229892 BitCount = 119 ID = 2016
 238.280447 1  2016            Rx   d 8  47  56   0 153 242  16  16 153  Length = 231892 BitCount = 120 ID = 2016
 238.280689 1  2016            Rx   d 8  32  34  32   0  25  34   8   0  Length = 233892 BitCount = 121 ID = 2016
 238.280927 1  2016            Rx   d 8  33   1 210   2  38  25 242  16  Length = 229891 BitCount = 119 ID = 2016
 238.281161 1  2016            Rx   d 8  34  16 153  34   4   0 116  34  Length = 225891 BitCount = 117 ID = 2016
 238.281395 1  2016            Rx   d 8  35 153 242  16  16 153 243  16  Length = 225891 BitCount = 117 ID = 2016
 238.281632 1  2016            Rx   d 8  36  16 153 244  16  16 153  34  Length = 227892 BitCount = 118 ID = 2016
 238.281870 1  2016            Rx   d 8  37  32   0 153  51  32   0 153  Length = 229892 BitCount = 119 ID = 2016
 238.282110 1  2016            Rx   d 8  38  68  32   0  25  36   8   0  Length = 231892 BitCount = 120 ID = 2016
 238.282346 1  2016            Rx   d 8  39  25  50   8   0 194  20   1  Length = 227892 BitCount = 118 ID = 2016
 238.282582 1  2016            Rx   d 8  40 210   2  54  25  66   4   0  Length = 227892 BitCount = 118 ID = 2016
